     0,8  1,9  2,a  3,b  4,c  5,d  6,e  7,f
00: 402e 0000 004b 0050 c0ff 0000 c071 c071 
08: 802e 0000 004b 0050 c0ff 0000 c071 c071 
10: 802e 0000 004b 0050 c0ff 0000 c071 c071 
18: 802e 0000 004b 0050 c0ff 0000 c071 c071 
20: c02e 0000 004b 0050 c0ff 0000 c071 c071 
28: c02e 0000 004b 0050 c0ff 0000 c071 c071 
30: c02e 0000 004b 0050 c0ff 0000 c071 c071 
38: 802e 0000 004b 0050 c0ff 0000 c071 c071 
40: c02e 0000 004b 0050 c0ff 0000 c071 c071 
48: 802e 0000 004b 0050 c0ff 0000 c071 c071 
50: 402e 0000 004b 0050 c0ff 0000 c071 c071 
58: 802e 0000 004b 0050 c0ff 0000 c071 c071 
60: 802e 0000 004b 0050 c0ff 0000 c071 c071 
68: 802e 0000 004b 0050 c0ff 0000 c071 c071 
70: 802e 0000 004b 0050 c0ff 0000 c071 c071 
78: 802e 0000 004b 0050 c0ff 0000 c071 c071 
80: 802e 0000 004b 0050 c0ff 0000 c071 c071 
88: 802e 0000 004b 0050 c0ff 0000 c071 c071 
90: 402e 0000 004b 0050 c0ff 0000 c071 c071 
98: 802e 0000 004b 0050 c0ff 0000 c071 c071 
a0: 802e 0000 004b 0050 c0ff 0000 c071 c071 
a8: 802e 0000 004b 0050 c0ff 0000 c071 c071 
b0: c02e 0000 004b 0050 c0ff 0000 c071 c071 
b8: c02e 0000 004b 0050 c0ff 0000 c071 c071 
c0: 802e 0000 004b 0050 c0ff 0000 c071 c071 
c8: 802e 0000 004b 0050 c0ff 0000 c071 c071 
d0: 402e 0000 004b 0050 c0ff 0000 c071 c071 
d8: 802e 0000 004b 0050 c0ff 0000 c071 c071 
e0: 402e 0000 004b 0050 c0ff 0000 c071 c071 
e8: c02e 0000 004b 0050 c0ff 0000 c071 c071 
f0: 802e 0000 004b 0050 c0ff 0000 c071 c071 
f8: 802e 0000 004b 0050 c0ff 0000 c071 c071 
