     0  1  2  3  4  5  6  7  8  9  a  b  c  d  e  f    0123456789abcdef
00: ff ff ff ff ff ff ff ff ff ff ff ff ff ff ff ff    ................
10: ff ff ff 5a 5a 02 ff 46 64 01 ff ff ff ff ff ff    ...ZZ?.Fd?......
20: 21 ff ff ff ff ff 20 25 ff ff ff 7f 00 ff ff ff    !..... %...?....
30: ff ff ff ff ff ff ff 7f 00 7f 80 ff ff ff 41 c9    .......?.??...A?
40: ad 00 ff d5 04 ff ff 50 ff ff 01 ff 00 ff ff ff    ?..??..P..?.....
50: ff ff ff ff ff ff ff ff ff ff ff ff ff ff ff ff    ................
60: ff ff ff ff ff ff ff ff ff ff ff ff ff ff ff ff    ................
70: ff ff ff ff ff ff ff ff ff ff ff ff ff ff ff ff    ................
80: ff ff ff ff ff ff ff ff ff ff ff ff ff ff ff ff    ................
90: ff ff ff 5a 5a 02 ff 46 64 01 ff ff ff ff ff ff    ...ZZ?.Fd?......
a0: 21 ff ff ff ff ff 20 25 ff ff ff 7f 00 ff ff ff    !..... %...?....
b0: ff ff ff ff ff ff ff 7f 00 7f 80 ff ff ff ff c9    .......?.??....?
c0: ad 00 ff d5 04 ff ff 50 ff ff 01 ff 00 ff ff ff    ?..??..P..?.....
d0: ff ff ff ff ff ff ff ff ff ff ff ff ff ff ff ff    ................
e0: ff ff ff ff ff ff ff ff ff ff ff ff ff ff ff ff    ................
f0: ff ff ff ff ff ff ff ff ff ff ff ff ff ff ff ff    ................
