     0  1  2  3  4  5  6  7  8  9  a  b  c  d  e  f    0123456789abcdef
00: 5d 5d 5d 5d 5d 5d 5d 5d 5d 5d 5d 5d 5d 5d 5d 5d    ]]]]]]]]]]]]]]]]
10: 5d 5d 5d 48 46 00 02 46 55 00 00 00 5d 5d 5d 5d    ]]]HF.?FU...]]]]
20: 83 79 c3 c3 c3 75 1e 1b 69 ff fe ff 00 89 62 d1    ?y???u??i.?..?b?
30: ad d3 ad d3 ad 80 6a 50 00 50 00 fe fe 00 41 1b    ??????jP.P.??.A?
40: 07 80 00 80 fe 01 00 ff 5d 81 09 5d 80 00 5d 5d    ??.???..]??]?.]]
50: 5d 5d 5d 5d 5d 5d 5d 5d 5d 5d 5d 5d 5d 5d 5d 5d    ]]]]]]]]]]]]]]]]
60: 5d 5d 5d 5d 5d 5d 5d 5d 5d 5d 5d 5d 5d 5d 5d 5d    ]]]]]]]]]]]]]]]]
70: 5d 5d 5d 5d 5d 5d 5d 5d 5d 5d 5d 5d 5d 5d 5d 5d    ]]]]]]]]]]]]]]]]
80: 5d 5d 5d 5d 5d 5d 5d 5d 5d 5d 5d 5d 5d 5d 5d 5d    ]]]]]]]]]]]]]]]]
90: 5d 5d 5d 48 46 00 02 46 55 00 00 00 5d 5d 5d 5d    ]]]HF.?FU...]]]]
a0: 83 79 c3 c3 c3 74 1e 1a 69 ff fe ff 00 89 62 d1    ?y???t??i.?..?b?
b0: ad d3 ad d3 ad 80 6a 50 00 50 00 fe fe 00 41 1b    ??????jP.P.??.A?
c0: 07 80 00 80 fe 00 00 ff 5d 81 09 5d 80 00 5d 5d    ??.??...]??]?.]]
d0: 5d 5d 5d 5d 5d 5d 5d 5d 5d 5d 5d 5d 5d 5d 5d 5d    ]]]]]]]]]]]]]]]]
e0: 5d 5d 5d 5d 5d 5d 5d 5d 5d 5d 5d 5d 5d 5d 5d 5d    ]]]]]]]]]]]]]]]]
f0: 5d 5d 5d 5d 5d 5d 5d 5d 5d 5d 5d 5d 5d 5d 5d 5d    ]]]]]]]]]]]]]]]]
