No size specified (using byte-data access)
WARNING! This program can confuse your I2C bus, cause data loss and worse!
I will probe file /dev/i2c/0, address 0x28, mode byte
Continue? [Y/n]
     0  1  2  3  4  5  6  7  8  9  a  b  c  d  e  f    0123456789abcdef
00: a0 10 03 01 7f 04 03 00 00 00 51 00 03 41 02 00    ???????...Q.?A?.
10: 00 05 51 51 51 51 51 51 3a 10 51 51 51 51 51 51    .?QQQQQQ:?QQQQQQ
20: ff ff 51 51 51 51 51 51 00 00 04 00 00 00 00 51    ..QQQQQQ..?....Q
30: 00 00 00 51 51 51 51 51 00 00 00 00 00 00 00 51    ...QQQQQ.......Q
40: 08 08 80 51 51 51 51 51 03 03 03 51 51 51 51 51    ???QQQQQ???QQQQQ
50: 00 80 51 51 51 51 51 51 00 00 51 51 51 51 51 51    .?QQQQQQ..QQQQQQ
60: f0 f0 51 51 51 51 51 51 af af 51 51 51 51 51 51    ??QQQQQQ??QQQQQQ
70: ff 00 51 51 51 51 51 51 ff ff 51 51 51 51 51 51    ..QQQQQQ..QQQQQQ
80: 2b 37 ff 51 51 51 51 51 f0 f0 f0 51 51 51 51 51    +7.QQQQQ???QQQQQ
90: 3c 46 ff 51 51 51 51 51 37 41 ff 51 51 51 51 51    <F.QQQQQ7A.QQQQQ
a0: 19 23 80 51 51 51 51 51 ff ff 51 51 51 51 51 51    ?#?QQQQQ..QQQQQQ
b0: 00 00 51 51 51 51 51 51 06 00 51 51 51 51 51 51    ..QQQQQQ?.QQQQQQ
c0: 51 51 51 51 51 51 51 51 51 51 51 51 51 51 51 51    QQQQQQQQQQQQQQQQ
d0: 51 51 51 51 51 51 51 51 51 51 51 51 51 51 51 51    QQQQQQQQQQQQQQQQ
e0: 51 51 51 51 51 51 51 51 51 51 51 51 51 51 51 51    QQQQQQQQQQQQQQQQ
f0: 51 51 51 51 51 51 51 51 51 51 51 51 51 51 51 51    QQQQQQQQQQQQQQQQ
