     0  1  2  3  4  5  6  7  8  9  a  b  c  d  e  f    0123456789abcdef
00: ff ff ff ff ff ff ff ff ff ff ff ff ff ff ff ff    ................
10: ff ff ff 4b 4b 02 ff 46 64 01 ff ff ff ff ff ff    ...KK?.Fd?......
20: 80 ff ff ff ff ff 29 24 ff ff ff 7f 80 ff ff ff    ?.....)$...??...
30: ff ff ff ff ff ff ff 7f 80 7f 80 ff ff ff 41 c9    .......????...A?
40: 29 00 ff f7 08 ff ff 50 ff ff 01 ff 00 ff ff ff    )..??..P..?.....
50: ff ff ff ff ff ff ff ff ff ff ff ff ff ff ff ff    ................
60: ff ff ff ff ff ff ff ff ff ff ff ff ff ff ff ff    ................
70: ff ff ff ff ff ff ff ff ff ff ff ff ff ff ff ff    ................
80: ff ff ff ff ff ff ff ff ff ff ff ff ff ff ff ff    ................
90: ff ff ff 4b 4b 02 ff 46 64 01 ff ff ff ff ff ff    ...KK?.Fd?......
a0: 80 ff ff ff ff ff 29 24 ff ff ff 7f 80 ff ff ff    ?.....)$...??...
b0: ff ff ff ff ff ff ff 7f 80 7f 80 ff ff ff 41 c9    .......????...A?
c0: 29 00 ff f7 08 ff ff 50 ff ff 01 ff 00 ff ff ff    )..??..P..?.....
d0: ff ff ff ff ff ff ff ff ff ff ff ff ff ff ff ff    ................
e0: ff ff ff ff ff ff ff ff ff ff ff ff ff ff ff ff    ................
f0: ff ff ff ff ff ff ff ff ff ff ff ff ff ff ff ff    ................
