     0  1  2  3  4  5  6  7  8  9  a  b  c  d  e  f    0123456789abcdef
00: b1 b1 b1 b1 b1 b1 b1 b1 b1 b1 b1 b1 b1 b1 b1 b1    ????????????????
10: b1 b1 b1 b1 b1 00 00 00 00 ff ff ff ff ff ff ff    ?????...........
20: 74 8f c2 c7 c5 b7 b6 21 60 ff ff 7e 69 97 82 ca    t??????!`..~i???
30: b6 ca b6 d3 ad ba a0 a0 a0 32 2d 8c ff ff 23 02    ?????????2-?..#?
40: 01 00 00 00 00 00 00 b1 2d 80 80 01 01 01 01 01    ?......?-???????
50: 01 01 01 01 01 01 01 01 01 01 01 01 01 01 01 01    ????????????????
60: 01 01 01 01 01 01 01 01 01 01 01 01 01 01 01 01    ????????????????
70: 01 01 01 01 01 01 01 01 01 01 01 01 01 01 01 01    ????????????????
80: 01 01 01 01 01 01 01 01 01 01 01 01 01 01 01 01    ????????????????
90: 01 01 01 01 01 00 00 00 00 ff ff ff ff ff ff ff    ?????...........
a0: 74 8f c2 c7 c5 b7 b6 21 60 ff ff 7e 69 97 82 ca    t??????!`..~i???
b0: b6 ca b6 d3 ad ba a0 a0 a0 32 2d 8c ff ff 23 02    ?????????2-?..#?
c0: 01 00 00 00 00 00 00 b1 2d 80 80 01 01 01 01 01    ?......?-???????
d0: 01 01 01 01 01 01 01 01 01 01 01 01 01 01 01 01    ????????????????
e0: 01 01 01 01 01 01 01 01 01 01 01 01 01 01 01 01    ????????????????
f0: 01 01 01 01 01 01 01 01 01 01 01 01 01 01 01 01    ????????????????
