     0,8  1,9  2,a  3,b  4,c  5,d  6,e  7,f
00: 1301 1301 1301 1301 1301 1301 1301 1301
08: 4101 6901 6a01 6901 6901 6901 6901 6901
10: 0200 0100 0100 0100 0100 0100 0100 0100
18: 0100 0100 0100 0100 0100 0100 0100 0100
20: 0200 0100 0100 0100 0100 0100 0100 0100
28: 0100 0100 0100 0100 0100 0100 0100 0100
30: 0200 0100 0100 0100 0100 0100 0100 0100
38: 0100 0100 0100 0100 0100 0100 0100 0100
40: 0000 0000 0000 0000 0000 0000 0000 0000
48: 0000 0000 0000 0000 0000 0000 0000 0000
50: 0200 0100 0100 0100 0100 0100 0100 0100
58: 0100 0100 0100 0100 0100 0100 0200 0100
60: 0100 0100 0100 0100 0100 0100 0100 0100
68: 0100 0100 0100 0100 0100 0100 0100 0100
70: 0200 0100 0100 0100 0100 0100 0100 0100
78: 0100 0100 0100 0100 0100 0100 0100 0100
80: 6501 2401 1701 1401 1301 1301 1301 1301
88: 4201 6901 6901 6901 6901 6901 6901 6901
90: 0200 0100 0100 0100 0100 0100 0100 0100
98: 0100 0100 0100 0100 0100 0100 0100 0100
a0: 6701 2501 1901 1601 1501 1501 1501 1501
a8: 4401 6c01 6c01 6c01 6c01 6c01 6c01 6c01
b0: 0200 0100 0100 0100 0100 0100 0100 0100
b8: 0100 0100 0100 0100 0100 0100 0100 0100
c0: 0200 0100 0100 0100 0100 0100 0100 0100
c8: 0100 0100 0100 0100 0100 0100 0100 0100
d0: 0200 0100 0100 0100 0100 0100 0100 0100
d8: 0100 0100 0100 0100 0100 0100 0100 0100
e0: 6701 2801 1b01 1701 1601 1501 1501 1501
e8: 4401 6c01 6c01 6c01 6c01 6c01 6c01 6c01
f0: 0200 0100 0100 0100 0100 0100 0100 0100
f8: 0100 0100 0100 0100 0100 0100 0100 0100
