     0  1  2  3  4  5  6  7  8  9  a  b  c  d  e  f    0123456789abcdef
00: 00 00 00 00 00 00 00 00 00 00 00 00 00 00 00 00    ................
10: 00 00 00 00 00 00 00 00 00 00 80 80 80 04 7e 10    ..........????~?
20: 75 51 c0 c3 c3 80 28 2d bd 0f de 0f 3b 1d a9 16    uQ????(-????;???
30: 33 4d 4d c2 81 00 c2 00 ff ff ff e6 7b fb 41 6f    3MM??.?....?{?Ao
40: 35 90 40 00 00 ff 00 ff 00 ff 00 ff 00 ff 81 7f    5?@...........??
50: 81 7f 81 7f ff ff ff ff ff ff ff ff 0a a2 a2 ca    ????........????
60: 8a 8a e0 aa 33 4c 4c 5a 2d 2d 64 41 41 04 42 00    ????3LLZ--dAA?B.
70: 00 00 00 00 00 00 6c 60 f0 00 00 55 01 00 00 00    ......l`?..U?...
80: 00 00 00 00 00 00 ff ff 00 00 fb 64 64 64 00 00    ..........?ddd..
90: 00 59 59 59 00 00 00 00 00 00 00 00 00 00 00 00    .YYY............
a0: 00 00 00 00 00 00 00 00 00 00 00 00 00 00 00 00    ................
b0: 00 00 00 00 00 00 00 00 00 00 00 00 00 00 00 00    ................
c0: 00 00 00 00 00 00 00 00 00 00 00 00 00 00 00 00    ................
d0: 00 00 00 00 00 00 00 00 00 00 00 00 00 00 00 00    ................
e0: 00 00 00 00 00 00 00 00 00 00 00 00 00 00 00 00    ................
f0: 00 00 00 00 00 00 00 00 00 00 00 00 00 00 00 00    ................
