     0  1  2  3  4  5  6  7  8  9  a  b  c  d  e  f    0123456789abcdef
00: 00 00 00 00 00 00 00 00 00 00 00 00 00 00 00 00    ................
10: 00 00 00 00 00 00 00 00 00 00 00 00 00 00 00 00    ................
20: 00 ff bf 00 00 61 63 61 ff ff ff ff ff ff ff ff    ..?..aca........
30: 6b ff 00 8b 62 a4 20 00 b3 ff ff 00 00 73 41 68    k..?b? .?....sAh
40: 45 d0 10 1f 00 ff 00 ff 00 ff 00 ff 00 ff 81 95    E???..........??
50: 54 7c 90 a9 ff ff ff ff 00 80 ff ff 02 60 80 c8    T|??.....?..?`??
60: cc cc 20 00 6b 80 80 86 64 9a ff a4 a4 24 40 00    ?? .k???d?.??$@.
70: 00 00 00 00 cf ff 2c 48 15 00 00 55 00 00 00 00    ....?.,H?..U....
80: 10 00 00 00 00 00 00 00 00 00 00 00 00 00 00 00    ?...............
90: 00 00 00 00 00 00 00 00 00 00 00 00 00 00 00 00    ................
a0: 00 00 00 00 00 00 00 00 00 00 00 00 00 00 00 00    ................
b0: 00 00 00 00 00 00 00 00 00 00 00 00 00 00 00 00    ................
c0: 00 00 00 00 00 00 00 00 00 00 00 00 00 00 00 00    ................
d0: 00 00 00 00 00 00 00 00 00 00 00 00 00 00 00 00    ................
e0: 00 00 00 00 00 00 00 00 00 00 00 00 00 00 00 00    ................
f0: 00 00 00 00 00 00 00 00 00 00 00 00 00 00 00 00    ................
