# asus nvidia gtx280

     0  1  2  3  4  5  6  7  8  9  a  b  c  d  e  f    0123456789abcdef
00: 00 00 00 00 00 00 00 00 00 00 00 00 00 00 00 00    ................
10: 00 00 00 00 00 00 00 00 00 00 00 00 00 00 00 00    ................
20: 00 ff bf 00 00 79 77 7a 66 1e ff ff ff ff ff ff    ..?..ywzf?......
30: 66 ff 00 8e 62 a4 20 00 ff ff ff 00 00 73 41 69    f..?b? ......sAi
40: 45 d0 10 1f 00 ff 00 ff 00 ff 00 ff 00 ff 81 95    E???..........??
50: 54 7c 90 a9 ff ff ff ff 00 80 ff ff 02 60 80 c8    T|??.....?..?`??
60: cc cc 20 00 66 80 80 81 64 9a a1 a4 ab 00 40 00    ?? .f???d????.@.
70: 00 00 00 00 cf ff 0c 1c 1e 00 00 57 30 01 00 00    ....?.???..W0?..
80: 10 00 00 00 00 00 00 00 00 00 00 00 00 00 00 00    ?...............
90: 00 00 00 00 00 00 00 00 00 00 00 00 00 00 00 00    ................
a0: 00 00 00 00 00 00 00 00 00 00 00 00 00 00 00 00    ................
b0: 00 00 00 00 00 00 00 00 00 00 00 00 00 00 00 00    ................
c0: 00 00 00 00 00 00 00 00 00 00 00 00 00 00 00 00    ................
d0: 00 00 00 00 00 00 00 00 00 00 00 00 00 00 00 00    ................
e0: 00 00 00 00 00 00 00 00 00 00 00 00 00 00 00 00    ................
f0: 00 00 00 00 00 00 00 00 00 00 00 00 00 00 00 00    ................

