     0  1  2  3  4  5  6  7  8  9  a  b  c  d  e  f    0123456789abcdef
00: 20 b1 7c 08 00 00 00 a0 e0 00 00 00 40 80 00 01     ?|?...??...@?.?
10: de f4 9a 30 00 00 00 00 fb 37 00 03 00 00 00 00    ???0....?7.?....
20: 00 80 80 58 38 90 93 00 00 00 00 00 ff 00 00 00    .??X8??.........
30: da f7 9e e0 5f b8 ff 00 00 00 00 00 00 62 41 04    ????_?.......bA?
40: 00 00 00 00 40 40 40 b4 95 90 6a cc ff ff ff ff    ....@@@???j?....
50: ff ff ff ff 22 22 00 00 00 00 a4 a4 9a 74 5e 9a    ....""....???t^?
60: c4 a4 84 c4 40 00 00 00 ff f2 ce ce ff b4 00 00    ????@....???.?..
70: 00 b3 20 b1 b2 80 00 00 ff ff ff ff ce f0 d2 f0    .? ???......????
80: ff 10 00 00 00 00 00 00 80 5c c0 5a 00 57 00 c1    .?......?\?Z.W.?
90: 00 c2 bf 00 00 00 00 7f 00 00 00 00 00 00 00 00    .??....?........
a0: 00 20 00 be 4f 04 00 c7 0e 04 ff ff ff ff 00 00    . .?O?.???......
b0: 00 00 00 00 00 00 00 00 00 00 00 80 20 00 00 00    ...........? ...
c0: 00 00 00 80 20 00 00 00 00 00 00 00 00 00 00 00    ...? ...........
d0: 00 00 00 01 00 00 00 00 00 00 00 00 00 00 00 00    ...?............
e0: 00 00 00 00 00 00 00 00 00 00 00 00 00 00 00 00    ................
f0: 00 00 00 00 00 00 00 00 00 00 00 00 00 00 00 00    ................
