     0  1  2  3  4  5  6  7  8  9  a  b  c  d  e  f    0123456789abcdef
00: 00 00 00 00 00 00 00 00 00 00 00 00 00 00 00 00    ................
10: 00 00 00 00 00 00 00 00 00 00 00 00 00 00 00 00    ................
20: be 5e c4 c5 c4 09 28 20 77 0f 99 15 ff ff 00 00    ?^????( w???....
30: 3b 13 13 00 00 00 00 00 ff ff ff 00 00 76 41 69    ;??..........vAi
40: 05 00 00 52 00 ff 00 ff 00 ff 00 ff 00 ff 81 4c    ?..R..........?L
50: 81 7f 81 7f 30 2a ff ff ff ff ff ff 02 42 42 8f    ????0*......?BB?
60: 5f 5f e0 00 3b 0d 0d 39 20 20 46 27 27 44 40 00    __?.;??9  F''D@.
70: ed 00 00 00 6f fb 5f 34 00 00 00 55 03 06 00 02    ?...o?_4...U??.?
80: 00 00 00 00 00 00 00 00 00 00 00 00 00 00 00 00    ................
90: 00 00 00 00 00 00 00 00 00 00 00 00 00 00 00 00    ................
a0: 00 00 00 00 00 00 00 00 00 00 00 00 00 00 00 00    ................
b0: 00 00 00 00 00 00 00 00 00 00 00 00 00 00 00 00    ................
c0: 00 00 00 00 00 00 00 00 00 00 00 00 00 00 00 00    ................
d0: 00 00 00 00 00 00 00 00 00 00 00 00 00 00 00 00    ................
e0: 00 00 00 00 00 00 00 00 00 00 00 00 00 00 00 00    ................
f0: 00 00 00 00 00 00 00 00 00 00 00 00 00 00 00 00    ................
