     0  1  2  3  4  5  6  7  8  9  a  b  c  d  e  f    0123456789abcdef
00: 00 00 00 00 00 00 00 00 00 00 00 00 00 00 00 00    ................
10: 00 00 00 00 00 00 00 00 00 00 00 00 00 00 00 00    ................
20: 00 00 bc 00 00 00 61 00 ff ff ff ff ff ff ff ff    ..?...a.........
30: ff 00 00 00 00 00 00 00 ff ff ff 00 00 75 41 69    .............uAi
40: 05 d2 c0 1f 00 ff 00 ff 00 ff 00 ff 00 ff 01 ff    ????..........?.
50: 01 ff 01 ff ff ff ff ff ff ff ff ff e2 82 82 cc    ?.?.........????
60: cc cc 00 00 80 80 80 9a 9a 9a a4 a4 a4 44 40 00    ??..?????????D@.
70: 00 00 00 00 00 00 14 10 00 00 00 55 00 00 00 00    ......??...U....
80: 00 00 00 00 00 00 00 00 00 00 00 00 00 00 00 00    ................
90: 00 00 00 00 00 00 00 00 00 00 00 00 00 00 00 00    ................
a0: 00 00 00 00 00 00 00 00 00 00 00 00 00 00 00 00    ................
b0: 00 00 00 00 00 00 00 00 00 00 00 00 00 00 00 00    ................
c0: 00 00 00 00 00 00 00 00 00 00 00 00 00 00 00 00    ................
d0: 00 00 00 00 00 00 00 00 00 00 00 00 00 00 00 00    ................
e0: 00 00 00 00 00 00 00 00 00 00 00 00 00 00 00 00    ................
f0: 00 00 00 00 00 00 00 00 00 00 00 00 00 00 00 00    ................
