     0  1  2  3  4  5  6  7  8  9  a  b  c  d  e  f    0123456789abcdef
00: 00 00 00 00 00 00 00 00 00 00 00 00 00 00 00 00    ................
10: 00 00 00 00 00 00 00 00 00 00 00 00 00 00 00 00    ................
20: 22 01 21 01 00 00 00 00 00 00 95 09 51 0b ff ff    "?!?......??Q?..
30: ff ff 70 68 ff ff 0c 00 ff ff ff ff 00 70 41 02    ..ph..?......pA?
40: 01 80 00 55 85 78 81 7f 85 78 81 7f 81 7f 81 7f    ??.U?x???x??????
50: 81 7f 81 7f 81 7f 81 7f f0 ff f0 ff ff ff ff ff    ?????????.?.....
60: 00 00 00 00 00 00 00 00 c0 00 60 60 80 80 20 20    ........?.``??  
70: 5a 5a 7f cf 1c 88 00 00 22 00 00 07 13 00 00 00    ZZ????.."..??...
80: 00 ce 00 00 00 00 00 00 00 00 00 00 00 00 00 00    .?..............
90: 00 00 00 00 00 00 00 00 00 00 00 00 00 00 00 00    ................
a0: 00 00 00 00 00 00 00 00 00 00 00 00 00 00 00 00    ................
b0: 00 00 00 00 00 00 00 00 00 00 00 00 00 00 00 00    ................
c0: 00 00 00 00 00 00 00 00 00 00 00 00 00 00 00 00    ................
d0: 00 00 00 00 00 00 00 00 00 00 00 00 00 00 00 00    ................
e0: 00 00 00 00 00 00 00 00 00 00 00 00 00 00 00 00    ................
f0: 00 00 00 00 00 00 00 00 00 00 00 00 00 00 00 00    ................
