     0  1  2  3  4  5  6  7  8  9  a  b  c  d  e  f    0123456789abcdef
00: 20 b1 7c 08 00 00 00 c0 e0 00 00 00 40 80 00 01     ?|?...??...@?.?
10: c0 7c ca 30 00 00 00 00 37 37 00 03 00 00 00 00    ?|?0....77.?....
20: 00 80 80 58 38 90 93 00 00 00 30 37 ff 00 00 00    .??X8??...07....
30: 92 f7 f4 e0 3f b8 ff 00 ff 00 00 00 00 62 41 04    ??????.......bA?
40: 00 00 00 00 40 40 40 00 95 88 77 ff ff ff ff ff    ....@@@.??w.....
50: ff ff ff ff 22 22 00 00 00 00 a4 a4 9a 72 62 9a    ....""....???rb?
60: c4 84 84 c4 40 00 00 00 ff ff d2 ce ff b4 b4 00    ????@.....??.??.
70: 00 00 20 b2 b2 00 00 00 ff ff ff de ce ce f0 f0    .. ??......?????
80: ff 10 00 00 00 00 00 00 00 61 c0 5b 00 57 00 00    .?.......a?[.W..
90: 5f c3 bf 00 00 00 00 79 00 00 00 00 00 00 00 00    _??....y........
a0: 00 20 00 c0 00 c0 84 03 a3 03 ff ff ff ff 00 00    . .?.?????......
b0: 00 00 00 00 00 00 00 00 00 00 00 00 20 00 00 00    ............ ...
c0: 00 00 00 00 20 00 00 00 00 00 00 00 00 00 00 00    .... ...........
d0: 00 00 00 01 00 00 00 00 00 00 00 00 00 00 00 00    ...?............
e0: 00 00 00 00 00 00 00 00 00 00 00 00 00 00 00 00    ................
f0: 00 00 00 00 00 00 00 00 00 00 00 00 00 00 00 00    ................
