# From: Tomaz M.
# AMC6821 at 0x2e

     0  1  2  3  4  5  6  7  8  9  a  b  c  d  e  f    0123456789abcdef
00: 59 05 00 00 88 00 20 00 2f 0d 2b 46 00 00 00 00    Y?..?. ./?+F....
10: e0 2e 00 00 3c 00 46 00 50 00 64 50 1e 69 ff ff    ?...<.F.P.dP?i..
20: 1d 3c 74 52 78 7a 00 00 00 00 00 00 00 00 00 00    ?<tRxz..........
30: 00 00 00 00 00 00 00 00 00 00 00 00 00 21 49 03    .............!I?
40: 00 00 00 00 00 00 00 00 00 00 00 00 00 00 00 00    ................
50: 00 00 00 00 00 00 00 00 00 00 00 00 00 00 00 00    ................
60: 00 00 00 00 00 00 00 00 00 00 00 00 00 00 00 00    ................
70: 00 00 00 00 00 00 00 00 00 00 00 00 00 00 00 00    ................
80: 59 05 00 00 88 00 60 00 18 0d 27 43 00 00 00 00    Y?..?.`.??'C....
90: e0 2e 00 00 3c 00 46 00 50 00 64 50 1e 69 ff ff    ?...<.F.P.dP?i..
a0: 1d 3c 6c 52 78 7a 00 00 00 00 00 00 00 00 00 00    ?<lRxz..........
b0: 00 00 00 00 00 00 00 00 00 00 00 00 00 21 49 03    .............!I?
c0: 00 00 00 00 00 00 00 00 00 00 00 00 00 00 00 00    ................
d0: 00 00 00 00 00 00 00 00 00 00 00 00 00 00 00 00    ................
e0: 00 00 00 00 00 00 00 00 00 00 00 00 00 00 00 00    ................
f0: 00 00 00 00 00 00 00 00 00 00 00 00 00 00 00 00    ................
