     0  1  2  3  4  5  6  7  8  9  a  b  c  d  e  f    0123456789abcdef
00: b9 bd 9d 71 bf c8 00 cd a7 f8 a5 ac 8c 68 54 f8    ???q??.??????hT?
10: a5 f8 a5 ff 00 00 00 d4 46 41 24 50 4b 00 00 00    ???....?FA$PK...
20: 5e 5f d0 bb b8 b8 b8 1b 7e 92 94 62 59 62 59 d8    ^_??????~??bYbY?
30: c4 c3 b0 d9 b2 00 00 00 00 2d 28 a9 a9 a9 00 00    ?????....-(???..
40: 01 00 00 00 00 00 00 6e 00 22 01 40 00 00 80 06    ?......n."?@..??
50: ff ff 00 ff ff ff ff ff 31 8f 00 d5 ff 48 e2 1f    ........1?.?.H??
60: 5f 5f d0 bb b7 b7 b7 1b 7e 93 94 62 59 62 59 d8    __??????~??bYbY?
70: c4 c3 b0 d9 b2 00 00 00 00 2d 28 a9 a9 a9 00 00    ?????....-(???..
80: b9 bc 9d 71 bf c8 00 cd a7 f8 a5 ac 8c 68 54 f8    ???q??.??????hT?
90: a5 f8 a5 ff 00 00 00 d4 46 41 24 50 4b 00 00 00    ???....?FA$PK...
a0: 00 00 00 00 00 00 00 00 00 00 00 00 00 00 00 00    ................
b0: 00 00 00 00 00 00 00 00 00 00 00 00 00 00 00 00    ................
c0: ff ff ff ff ff ff ff ff ff ff ff ff ff ff ff ff    ................
d0: ff ff ff ff ff ff ff ff ff ff ff ff ff ff ff ff    ................
e0: 00 00 00 00 00 00 00 00 00 00 00 00 00 00 00 00    ................
f0: 00 00 00 00 00 00 00 00 00 00 00 00 00 00 00 00    ................
