habu ~ # i2cdump 3 0x2e
No size specified (using byte-data access)
WARNING! This program can confuse your I2C bus, cause data loss and worse!
I will probe file /dev/i2c-3, address 0x2e, mode byte
Continue? [Y/n] 
     0  1  2  3  4  5  6  7  8  9  a  b  c  d  e  f    0123456789abcdef
00: e4 00 42 31 f6 f6 f6 36 00 00 0f 00 00 00 21 00    ?.B1???6..?...!.
10: 00 41 aa f8 32 ae 6d 1e 76 00 00 00 00 00 00 1c    .A??2?m?v......?
20: 55 5e be c1 c1 da 27 21 a0 1a f3 11 a3 13 ff ff    U^????'!??????..
30: 33 80 80 1e 81 00 10 00 ff ff ff 2d c3 41 61 6d    3????.?....-?Aam
40: 15 90 02 0d 00 ff 00 ff 00 ff 00 ff 00 ff 81 7f    ????..........??
50: 81 7f 81 7f ff ff ff ff ff ff ff ff 02 22 42 7a    ????........?"Bz
60: 8a 8a e8 88 33 80 80 d8 2d 2d f1 41 41 24 44 00    ????3???--?AA$D.
70: 00 00 c6 fe b8 00 38 c1 38 c1 69 be 98 9d 30 9b    ..???.8?8?i???0?
80: 90 9e 90 9d 98 9d 98 9d 28 9b 30 9b 30 9b 98 9e    ????????(?0?0???
90: 90 9e 90 9e 80 d2 80 d2 00 d5 a3 27 a3 27 a3 27    ????????.??'?'?'
a0: 6d 21 6d 21 6d 21 1e 1e 1c 1e 1e 1e 00 d2 00 d2    m!m!m!??????.?.?
b0: 00 d2 a2 2f c1 99 1f ca 6e 80 70 6f 50 88 6d e0    .??/????n?poP?m?
c0: 97 68 e0 a8 61 20 b9 59 10 c8 a4 30 72 9c 80 83    ?h??a ?Y???0r???
d0: 9b e0 89 9a f0 96 9e 40 bc 9d 10 d1 f2 70 71 ef    ???????@?????pq?
e0: 20 7f f0 b0 8c f3 f0 97 00 31 b9 04 81 c8 9c d3     ???????.1??????
f0: a3 27 6a 21 1c 1e 00 d2 90 ab 74 60 b8 76 10 c9    ?'j!??.???t`?v??
habu ~ #