$ sudo i2cdump -y 1 0x77
No size specified (using byte-data access)
     0  1  2  3  4  5  6  7  8  9  a  b  c  d  e  f    0123456789abcdef
00: XX XX XX XX XX 00 XX 00 XX XX XX 00 XX XX 00 XX    XXXXX.X.XXX.XX.X
10: 00 XX XX 00 XX XX 00 XX 00 XX 00 XX 00 XX 00 XX    .XX.XX.X.X.X.X.X
20: 00 00 00 00 00 00 00 00 00 00 00 00 00 00 00 00    ................
30: 00 00 00 00 00 00 00 00 00 00 00 00 00 00 00 00    ................
40: 00 00 00 00 00 00 00 00 00 00 00 00 00 00 00 00    ................
50: 00 00 00 00 00 00 00 00 00 00 00 00 00 00 00 00    ................
60: 00 00 00 00 00 00 00 00 00 00 00 00 00 00 00 00    ................
70: 00 00 00 00 00 00 00 00 00 00 00 00 00 00 00 00    ................
80: a5 94 48 09 2a 27 78 7b 8a 7e 1f 05 fb b0 c7 c2    ??H?*'x{?~??????
90: 82 18 63 d2 4c b8 19 73 00 28 80 00 d1 f6 09 b2    ??c?L??s.(?.????
a0: a5 94 48 09 2a 27 78 7b 8a 7e 1f 05 fb b0 c7 c2    ??H?*'x{?~??????
b0: 82 18 63 d2 4c b8 19 73 00 28 80 00 d1 f6 09 b2    ??c?L??s.(?.????
c0: 00 00 bc 33 00 00 00 00 00 00 00 10 00 00 00 03    ..?3.......?...?
d0: 55 02 06 00 00 00 00 00 00 00 00 00 00 00 00 00    U??.............
e0: 00 00 00 00 00 00 00 00 00 00 00 00 00 00 00 00    ................
f0: 00 00 00 00 00 00 80 00 00 00 00 00 00 00 00 00    ......?.........
