     0  1  2  3  4  5  6  7  8  9  a  b  c  d  e  f    0123456789abcdef
00: 00 00 00 00 00 00 00 00 00 00 00 00 00 00 00 00    ................
10: 00 00 00 00 00 00 00 00 00 00 00 00 00 00 00 00    ................
20: 00 79 c1 c2 be 80 29 31 46 0b ff ff ff ff ff ff    .y????)1F?......
30: 55 ff ff 00 00 00 00 00 00 00 00 00 00 00 5c 8a    U.............\?
40: 05 91 40 00 00 ff 00 ff 00 ff 00 ff 00 ff 81 7f    ??@...........??
50: 81 7f 81 7f ff ff ff ff ff ff ff ff 42 62 62 cb    ????........Bbb?
60: cb db e0 00 55 80 80 5a 5a 3c 64 64 4d 40 40 00    ???.U??ZZ<ddM@@.
70: 55 ff ff 09 09 09 09 09 09 00 10 00 40 00 ec 18    U..??????.?. at .??
80: 7e a4 0e 00 60 90 99 90 c1 00 4d 4d 0b 0b 0d 00    ~??.`????.MM???.
90: 04 04 04 04 0c 0c 0c 5a f1 c2 00 00 ff 00 ff 00    ???????Z??......
a0: 00 00 0c 00 02 00 00 0b 0b fe ff fe ff ff ff ff    ..?.?..???.?....
b0: ff 00 00 00 00 00 28 28 0e 0e 2b 2b 00 00 00 00    ......((??++....
c0: 00 00 00 00 00 00 00 00 00 00 00 00 00 00 00 00    ................
d0: 00 00 00 00 00 00 00 00 00 00 00 00 00 00 00 00    ................
e0: 00 00 00 00 00 00 00 00 00 00 00 00 00 00 00 00    ................
f0: 00 00 00 00 00 00 00 00 00 00 00 00 00 00 00 00    ................
