# Tyan S2865 Tomcat K8E
# i2cdump -y 0 0x2e b

     0  1  2  3  4  5  6  7  8  9  a  b  c  d  e  f    0123456789abcdef
00: 00 00 00 00 00 00 00 00 00 00 00 00 00 00 00 00    ................
10: 00 00 00 00 00 00 00 00 00 00 00 00 00 00 00 f9    ...............?
20: 64 75 c3 c4 c0 2e 17 15 e2 01 e6 01 ed 01 d9 01    du???.??????????
30: 55 55 55 00 00 00 00 00 00 00 00 00 00 00 5c 89    UUU...........\?
40: 05 00 00 00 00 ff 00 ff 00 ff 00 ff 00 ff 81 4b    ?.............?K
50: 81 7f 81 7f ff ff ff ff ff ff ff ff 02 02 02 a7    ????........????
60: a7 a7 e0 00 4d 4d 4d 2d 2d 2d 64 64 64 44 40 00    ???.MMM---dddD@.
70: 55 55 55 09 09 09 09 09 09 00 30 00 44 00 00 1c    UUU??????.0.D..?
80: 00 a4 05 00 69 34 5f bc 8a 00 4d 4d 0b 0b 0c 00    .??.i4_??.MM???.
90: cc cc cc cc 0c 0c 0c 5a f1 c1 af 00 ff 00 ff 00    ???????Z???.....
a0: 00 00 0c 00 00 00 00 0b 0b fe ff fe ff ff ff ff    ..?....???.?....
b0: ff 00 00 00 00 00 28 28 0e 0e 2b 2b 00 00 00 00    ......((??++....
c0: 00 00 00 00 00 00 00 00 00 00 00 00 00 00 00 00    ................
d0: 00 00 00 00 00 00 00 00 00 00 00 00 00 00 00 00    ................
e0: 00 00 00 00 00 00 00 00 00 00 00 00 00 00 00 00    ................
f0: 00 00 00 00 00 00 00 00 00 00 00 00 00 00 00 00    ................
