     0,8  1,9  2,a  3,b  4,c  5,d  6,e  7,f
00: XXXX XXXX XXXX XXXX XXXX XXXX XXXX XXXX 
08: XXXX XXXX XXXX XXXX XXXX XXXX XXXX XXXX 
10: XXXX XXXX XXXX XXXX XXXX XXXX XXXX XXXX 
18: XXXX XXXX XXXX XXXX XXXX XXXX XXXX XXXX 
20: XXXX XXXX XXXX XXXX XXXX XXXX XXXX XXXX 
28: XXXX XXXX XXXX XXXX XXXX XXXX XXXX XXXX 
30: XXXX XXXX XXXX XXXX XXXX XXXX XXXX XXXX 
38: XXXX XXXX XXXX XXXX XXXX XXXX XXXX XXXX 
40: XXXX 0046 000a 000a 000a 000a 000a 000a 
48: 0008 0010 8017 8017 000c c000 c000 c000 
50: XXXX XXXX XXXX XXXX XXXX XXXX XXXX XXXX 
58: XXXX XXXX XXXX XXXX XXXX XXXX XXXX XXXX 
60: XXXX XXXX XXXX XXXX XXXX XXXX XXXX XXXX 
68: XXXX XXXX XXXX XXXX XXXX XXXX XXXX XXXX 
70: XXXX XXXX XXXX XXXX XXXX XXXX XXXX XXXX 
78: XXXX XXXX XXXX XXXX XXXX XXXX XXXX XXXX 
80: XXXX XXXX XXXX XXXX XXXX XXXX XXXX XXXX 
88: XXXX XXXX XXXX XXXX XXXX XXXX XXXX XXXX 
90: XXXX XXXX XXXX XXXX XXXX XXXX XXXX XXXX 
98: XXXX XXXX XXXX XXXX XXXX XXXX XXXX XXXX 
a0: XXXX 0046 000a XXXX XXXX XXXX XXXX XXXX 
a8: XXXX 0010 8017 XXXX XXXX XXXX XXXX XXXX 
b0: XXXX XXXX XXXX XXXX XXXX XXXX XXXX XXXX 
b8: XXXX XXXX XXXX XXXX XXXX XXXX XXXX XXXX 
c0: XXXX XXXX XXXX XXXX XXXX XXXX XXXX XXXX 
c8: XXXX XXXX XXXX XXXX XXXX XXXX XXXX XXXX 
d0: XXXX XXXX XXXX XXXX XXXX XXXX XXXX XXXX 
d8: XXXX XXXX XXXX XXXX XXXX XXXX XXXX XXXX 
e0: XXXX XXXX XXXX XXXX XXXX XXXX XXXX XXXX 
e8: XXXX XXXX XXXX XXXX XXXX XXXX XXXX XXXX 
f0: XXXX XXXX XXXX XXXX XXXX XXXX XXXX XXXX 
f8: XXXX XXXX XXXX XXXX XXXX XXXX XXXX XXXX 
