     0,8  1,9  2,a  3,b  4,c  5,d  6,e  7,f
00: 1019 1039 1059 1079 1099 10b9 10d9 10f9
08: 0091 0091 1059 1079 0091 10b9 10d9 10f9
10: 1019 1039 1059 1079 1099 10b9 10d9 10f9
18: 0091 0091 1059 1079 0091 10b9 10d9 10f9
20: 1019 1039 000a 1079 1099 10b9 10d9 10f9
28: 0091 0091 1059 1079 0091 10b9 10d9 10f9
30: 1019 1039 1059 1079 1099 10b9 10d9 10f9
38: 0091 0091 1059 1079 0091 10b9 10d9 10f9
40: c00c 000f 000a 000a 000a 000a 000a 000a
48: 0005 0010 8018 8018 004c c004 c004 c004
50: 1019 000f 1059 1079 1039 10b9 10d9 10f9
58: 0091 0091 1059 1079 0091 10b9 10d9 10f9
60: 1019 1039 1059 1079 1099 10b9 10d9 10f9
68: 0091 0091 1059 1079 0091 10b9 10d9 10f9
70: 1019 1039 1059 1079 1099 10b9 10d9 10f9
78: 0091 0091 1059 1079 0091 10b9 10d9 10f9
80: 1019 1039 1059 1079 1099 10b9 10d9 10f9
88: 0091 0091 1059 1079 0091 10b9 10d9 10f9
90: 1019 1039 1059 1079 1099 10b9 10d9 10f9
98: 0091 0091 1059 1079 0091 10b9 10d9 10f9
a0: 1019 000f 000a 1079 1099 10b9 10d9 10f9
a8: 0008 0010 8018 1079 004c 10b9 10d9 10f9
b0: 1019 1039 1059 1079 1099 10b9 10d9 10f9
b8: 0091 0091 1059 1079 0091 10b9 10d9 10f9
c0: 1019 1039 1059 1079 1099 10b9 10d9 10f9
c8: 0091 0091 1059 1079 0091 10b9 10d9 10f9
d0: 1019 1039 1059 1079 1099 10b9 10d9 10f9
d8: 0091 0091 1059 1079 0091 10b9 10d9 10f9
e0: 1019 1039 1059 1079 1099 10b9 10d9 10f9
e8: 0091 0091 1059 1079 0091 10b9 c004 10f9
f0: 1019 1039 1059 1079 1099 10b9 10d9 10f9
f8: 0091 0091 1059 1079 0091 10b9 10d9 10f9
