     0  1  2  3  4  5  6  7  8  9  a  b  c  d  e  f    0123456789abcdef
00: 19 39 59 79 99 b9 d9 f9 91 91 59 79 91 b9 d9 f9    ?9Yy??????Yy????
10: 19 39 59 79 99 b9 d9 f9 91 91 59 79 91 b9 d9 f9    ?9Yy??????Yy????
20: 19 39 12 79 99 b9 d9 f9 91 91 59 79 91 b9 d9 f9    ?9?y??????Yy????
30: 19 39 59 79 99 b9 d9 f9 91 91 59 79 91 b9 d9 f9    ?9Yy??????Yy????
40: 08 24 12 12 12 12 12 12 0c 10 c4 c4 0c 00 00 00    ?$???????????...
50: 19 24 59 79 39 b9 d9 f9 91 91 59 79 91 b9 d9 f9    ?$Yy9?????Yy????
60: 19 39 59 79 99 b9 d9 f9 91 91 59 79 91 b9 d9 f9    ?9Yy??????Yy????
70: 19 39 59 79 99 b9 d9 f9 91 91 59 79 91 b9 d9 f9    ?9Yy??????Yy????
80: 19 39 59 79 99 b9 d9 f9 91 91 59 79 91 b9 d9 f9    ?9Yy??????Yy????
90: 19 39 59 79 99 b9 d9 f9 91 91 59 79 91 b9 d9 f9    ?9Yy??????Yy????
a0: 19 24 12 79 99 b9 d9 f9 0c 10 c4 79 8c b9 d9 f9    ?$?y???????y????
b0: 19 39 59 79 99 b9 d9 f9 91 91 59 79 91 b9 d9 f9    ?9Yy??????Yy????
c0: 19 39 59 79 99 b9 d9 f9 91 91 59 79 91 b9 d9 f9    ?9Yy??????Yy????
d0: 19 39 59 79 99 b9 d9 f9 91 91 59 79 91 b9 d9 f9    ?9Yy??????Yy????
e0: 19 39 59 79 99 b9 d9 f9 91 91 59 79 91 b9 08 f9    ?9Yy??????Yy????
f0: 19 39 59 79 99 b9 d9 f9 91 91 59 79 91 b9 d9 f9    ?9Yy??????Yy????
