     0  1  2  3  4  5  6  7  8  9  a  b  c  d  e  f    0123456789abcdef
00: 19 39 59 79 99 b9 d9 f9 91 91 59 79 91 b9 d9 f9    ?9Yy??????Yy????
10: 19 39 59 79 99 b9 d9 f9 91 91 59 79 91 b9 d9 f9    ?9Yy??????Yy????
20: 19 39 0a 79 99 b9 d9 f9 91 91 59 79 91 b9 d9 f9    ?9?y??????Yy????
30: 19 39 59 79 99 b9 d9 f9 91 91 59 79 91 b9 d9 f9    ?9Yy??????Yy????
40: 0c 0f 0a 0a 0a 0a 0a 0a 09 10 18 18 4c 04 04 04    ????????????L???
50: 19 0f 59 79 39 b9 d9 f9 91 91 59 79 91 b9 d9 f9    ??Yy9?????Yy????
60: 19 39 59 79 99 b9 d9 f9 91 91 59 79 91 b9 d9 f9    ?9Yy??????Yy????
70: 19 39 59 79 99 b9 d9 f9 91 91 59 79 91 b9 d9 f9    ?9Yy??????Yy????
80: 19 39 59 79 99 b9 d9 f9 91 91 59 79 91 b9 d9 f9    ?9Yy??????Yy????
90: 19 39 59 79 99 b9 d9 f9 91 91 59 79 91 b9 d9 f9    ?9Yy??????Yy????
a0: 19 0f 0a 79 99 b9 d9 f9 10 10 18 79 4c b9 d9 f9    ???y???????yL???
b0: 19 39 59 79 99 b9 d9 f9 91 91 59 79 91 b9 d9 f9    ?9Yy??????Yy????
c0: 19 39 59 79 99 b9 d9 f9 91 91 59 79 91 b9 d9 f9    ?9Yy??????Yy????
d0: 19 39 59 79 99 b9 d9 f9 91 91 59 79 91 b9 d9 f9    ?9Yy??????Yy????
e0: 19 39 59 79 99 b9 d9 f9 91 91 59 79 91 b9 04 f9    ?9Yy??????Yy????
f0: 19 39 59 79 99 b9 d9 f9 91 91 59 79 91 b9 d9 f9    ?9Yy??????Yy????
