     0,8  1,9  2,a  3,b  4,c  5,d  6,e  7,f
00: ffff ffff ffff ffff ffff ffff ffff ffff 
08: ffff ffff ffff ffff ffff ffff ffff ffff 
10: ffff ffff ffff ffff ffff ffff ffff 0000 
18: ffff ffff ffff ffff ffff ffff ffff ffff 
20: ffff ffff ffff ffff ffff ffff ffff ffff 
28: ffff ffff ffff ffff ffff ffff ffff ffff 
30: ffff ffff ffff ffff ffff ffff ffff ffff 
38: ffff ffff ffff ffff ffff ffff ffff ffff 
40: ffff ffff 0101 ffff ffff ffff ffff ffff 
48: ffff ffff ffff ffff ffff ffff ffff ffff 
50: ffff ffff ffff ffff ffff ffff ffff ffff 
58: ffff ffff ffff ffff ffff ffff ffff ffff 
60: ffff ffff ffff ffff ffff ffff ffff ffff 
68: ffff ffff ffff ffff ffff ffff ffff ffff 
70: ffff ffff ffff ffff ffff ffff ffff ffff 
78: ffff ffff ffff ffff ffff ffff ffff ffff 
80: ffff ffff ffff ffff ffff ffff ffff ffff 
88: ffff ffff ffff ffff ffff ffff ffff ffff 
90: ffff ffff ffff ffff ffff ffff ffff ffff 
98: ffff ffff ffff ffff ffff ffff ffff ffff 
a0: 80ff 000a 000a 00ce 002d 800b 809b 00e4 
a8: 00f4 0072 80e7 001e 1080 0040 0051 80ff 
b0: ffff ffff ffff ffff ffff ffff ffff ffff 
b8: ffff ffff ffff ffff ffff ffff ffff ffff 
c0: 0000 ffff ffff ffff ffff ffff ffff ffff 
c8: ffff ffff ffff ffff ffff ffff ffff ffff 
d0: ffff ffff ffff ffff ffff ffff ffff ffff 
d8: ffff ffff ffff ffff ffff ffff ffff ffff 
e0: ffff ffff ffff ffff ffff ffff ffff ffff 
e8: ffff ffff ffff ffff ffff ffff ffff ffff 
f0: ffff ffff ffff ffff ffff ffff ffff ffff 
f8: ffff ffff ffff ffff ffff ffff ffff ffff 
