     0,8  1,9  2,a  3,b  4,c  5,d  6,e  7,f
00: ff03 XXXX ff03 XXXX ff03 XXXX ff03 XXXX 
08: ff03 XXXX ff03 XXXX ff03 XXXX ff03 XXXX 
10: ff03 XXXX ff03 XXXX ff03 XXXX ff03 XXXX 
18: ff03 XXXX ff03 XXXX ff03 XXXX ff03 XXXX 
20: ff03 XXXX ff03 XXXX ff03 XXXX ff03 XXXX 
28: ff03 XXXX ff03 XXXX ff03 XXXX ff03 XXXX 
30: ff03 XXXX ff03 XXXX ff03 XXXX ff03 XXXX 
38: ff03 XXXX ff03 XXXX ff03 XXXX ff03 XXXX 
40: ff03 0050 004b 004b 004b 004b 004b 004b 
48: 000c 0010 0019 0019 002e e002 e002 e002 
50: XXXX XXXX ff03 XXXX ff03 XXXX ff03 XXXX 
58: ff03 XXXX ff03 XXXX ff03 XXXX ff03 XXXX 
60: ff03 XXXX ff03 XXXX ff03 XXXX ff03 XXXX 
68: ff03 XXXX ff03 XXXX ff03 XXXX ff03 XXXX 
70: ff03 XXXX ff03 XXXX ff03 XXXX ff03 XXXX 
78: ff03 XXXX ff03 XXXX ff03 XXXX ff03 XXXX 
80: ff03 XXXX ff03 XXXX ff03 XXXX ff03 XXXX 
88: ff03 XXXX ff03 XXXX ff03 XXXX ff03 XXXX 
90: ff03 XXXX ff03 XXXX ff03 XXXX ff03 XXXX 
98: ff03 XXXX ff03 XXXX ff03 XXXX ff03 XXXX 
a0: ff03 0050 004b XXXX ff03 XXXX ff03 XXXX 
a8: ff03 0010 0019 XXXX ff03 XXXX ff03 XXXX 
b0: ff03 XXXX ff03 XXXX ff03 XXXX ff03 XXXX 
b8: ff03 XXXX ff03 XXXX ff03 XXXX ff03 XXXX 
c0: ff03 XXXX ff03 XXXX ff03 XXXX ff03 XXXX 
c8: ff03 XXXX ff03 XXXX ff03 XXXX ff03 XXXX 
d0: ff03 XXXX ff03 XXXX ff03 XXXX ff03 XXXX 
d8: ff03 XXXX ff03 XXXX ff03 XXXX ff03 XXXX 
e0: ff03 XXXX ff03 XXXX ff03 XXXX ff03 XXXX 
e8: ff03 XXXX ff03 XXXX ff03 XXXX ff03 XXXX 
f0: ff03 XXXX ff03 XXXX ff03 XXXX ff03 XXXX 
f8: ff03 XXXX ff03 XXXX ff03 XXXX ff03 XXXX 
