localhost ~ # i2cdump -y 0 0x48 w
     0,8  1,9  2,a  3,b  4,c  5,d  6,e  7,f
00: 8050 0030 004b 0050 0050 0050 0050 0050
08: 0050 0050 0050 0050 0050 0050 0050 0050
10: XXXX XXXX XXXX XXXX XXXX XXXX XXXX XXXX
18: XXXX XXXX XXXX XXXX XXXX XXXX XXXX XXXX
20: XXXX XXXX 004b XXXX XXXX XXXX XXXX XXXX
28: XXXX XXXX XXXX XXXX XXXX XXXX XXXX XXXX
30: XXXX XXXX XXXX XXXX XXXX XXXX XXXX XXXX
38: XXXX XXXX XXXX XXXX XXXX XXXX XXXX XXXX
40: 8050 0000 004b 0050 0050 0050 0050 0050
48: 0050 0050 0050 0050 0050 0050 0050 0050
50: XXXX XXXX XXXX XXXX XXXX XXXX XXXX XXXX
58: XXXX XXXX XXXX XXXX XXXX XXXX XXXX XXXX
60: XXXX XXXX XXXX XXXX XXXX XXXX XXXX XXXX
68: XXXX XXXX XXXX XXXX XXXX XXXX XXXX XXXX
70: XXXX XXXX XXXX XXXX XXXX XXXX XXXX XXXX
78: XXXX XXXX XXXX XXXX XXXX XXXX XXXX XXXX
80: XXXX XXXX XXXX XXXX XXXX XXXX XXXX XXXX
88: XXXX XXXX XXXX XXXX XXXX XXXX XXXX XXXX
90: XXXX XXXX XXXX XXXX XXXX XXXX XXXX XXXX
98: XXXX XXXX XXXX XXXX XXXX XXXX XXXX XXXX
a0: XXXX XXXX XXXX XXXX XXXX XXXX XXXX XXXX
a8: XXXX XXXX XXXX XXXX XXXX XXXX XXXX XXXX
b0: XXXX XXXX XXXX XXXX XXXX XXXX XXXX XXXX
b8: XXXX XXXX XXXX XXXX XXXX XXXX XXXX XXXX
c0: XXXX XXXX XXXX XXXX XXXX XXXX XXXX XXXX
c8: XXXX XXXX XXXX XXXX XXXX XXXX XXXX XXXX
d0: XXXX XXXX XXXX XXXX XXXX XXXX XXXX XXXX
d8: XXXX XXXX XXXX XXXX XXXX XXXX XXXX XXXX
e0: XXXX XXXX XXXX XXXX XXXX XXXX XXXX XXXX
e8: XXXX XXXX XXXX XXXX XXXX XXXX 0050 XXXX
f0: XXXX XXXX XXXX XXXX XXXX XXXX XXXX XXXX
f8: XXXX XXXX XXXX XXXX XXXX XXXX XXXX XXXX

