# i2cdump -f -y 4 0x2e b

     0  1  2  3  4  5  6  7  8  9  a  b  c  d  e  f    0123456789abcdef
00: 1a 00 19 80 1a 00 19 e0 00 00 75 00 00 00 00 00    ?.???.??..u.....
10: d0 12 12 16 07 07 00 07 00 64 64 64 00 64 00 00    ??????.?.ddd.d..
20: 01 0e 00 08 00 00 00 80 00 00 00 03 00 00 00 00    ??.?...?...?....
30: 55 55 55 00 55 00 00 00 00 00 00 00 00 00 00 00    UUU.U...........
40: ff 01 2b 38 01 2a 19 10 66 f5 00 00 f8 ff 24 a0    .?+8?*??f?..?.$?
50: 00 fb 7f 7f 7f 7f e6 7f 7f 7f 7f d1 7f 7f 7f 7f    .???????????????
60: bc 7f 7f 7f 7f a7 7f 7f 7f 7f 92 7f 7f 7f 7f 92    ????????????????
70: 7f 7f 7f 7f 92 7f 7f 7f 7f 0a c0 00 00 00 00 00    ???????????.....
80: 00 00 00 00 00 00 00 00 00 00 00 00 00 00 00 00    ................
90: 00 00 00 00 00 00 00 00 00 00 00 00 00 00 00 00    ................
a0: 00 00 00 00 00 00 00 00 00 00 00 00 00 00 00 00    ................
b0: 00 00 00 00 00 00 00 00 00 00 00 00 00 00 00 00    ................
c0: 00 00 00 00 5a 00 00 00 72 80 43 52 2c 05 44 22    ....Z...r?CR,?D"
d0: 20 00 00 07 20 00 20 40 00 00 00 12 00 00 00 00     ..? . @...?....
e0: 00 00 00 03 00 00 00 00 00 00 00 00 00 00 00 00    ...?............
f0: 00 00 00 00 00 00 00 00 00 00 00 00 01 26 5d 01    ............?&]?
