     0  1  2  3  4  5  6  7  8  9  a  b  c  d  e  f    0123456789abcdef
00: 00 00 00 00 00 00 00 00 00 00 00 00 00 00 00 00    ................
10: 00 00 00 00 00 00 00 00 00 00 00 00 00 00 00 00    ................
20: 8c a1 c2 c4 c1 00 36 00 00 00 30 2c 10 0d ff ff    ?????.6...0,??..
30: cc 09 ff ff ff ff 3f 47 6f 00 00 00 00 00 5c b1    ??....?Go.....\?
40: 05 0d 0d 00 00 00 00 ec 1a 04 7e 98 64 da b3 cd    ???....???~?d???
50: b3 cd b3 cd 64 da 81 58 81 58 81 3c 81 37 81 4b    ????d??X?X?<?7?K
60: 81 50 50 46 50 46 78 69 f0 ff f0 ff 04 3f 00 ff    ?PPFPFxi?.?.??..
70: 00 ff 00 ff 00 ff 00 ff 00 ff ed 1a 04 00 00 00    ..........???...
80: a9 a9 49 99 90 cc ff fa e8 88 3f 47 6f 00 00 00    ??I???.????Go...
90: 40 40 2f 2f 2f 2d 7f 7f 7f 7f 7f 7f 20 02 02 a4    @@///-?????? ???
a0: 28 69 db 00 0d 0d 04 04 2f 2f 2f 01 1f 00 62 7f    (i?.????///??.b?
b0: 7f 7f 7f 7f 00 00 00 80 00 00 00 00 00 00 00 00    ????...?........
c0: 00 80 40 00 7f 7f 7f 7f 7f 7f 00 00 00 00 00 00    .?@.??????......
d0: 00 ff ff ff ff ff ff ff ff ff ff 6f ff ff ff ff    ...........o....
e0: 00 0a a0 2a e6 00 40 00 18 00 00 00 00 00 00 00    .??*?.@.?.......
f0: 00 00 00 00 00 00 00 00 00 00 00 00 00 00 00 00    ................

