     0  1  2  3  4  5  6  7  8  9  a  b  c  d  e  f    0123456789abcdef
00: 00 00 00 00 00 00 00 00 00 00 00 00 00 00 00 00    ................
10: 00 00 00 00 00 00 00 00 00 00 00 00 00 00 00 00    ................
20: 71 80 c4 c4 c2 1b 19 1c a4 07 ff ff 1b 09 ab 07    q?????????..????
30: ff ff ff 00 00 00 00 00 00 00 00 00 00 00 5c 65    ..............\e
40: 05 00 00 0d 6d 79 7c 89 b6 ca b6 ca b6 ca 0a 37    ?..?my|????????7
50: 0a 2d 0a 2d 8c 0a ff ff ff ff ff ff 62 62 62 c0    ?-?-??......bbb?
60: 70 70 20 00 80 80 4d 1f 23 23 3f 2d 2d 44 40 00    pp .??M?##?--D@.
70: ff ff ff 09 09 09 09 09 09 00 30 00 40 00 ec 18    ...??????.0.@.??
80: 1e a4 0e 00 00 3b 50 44 58 00 4d 4d 09 09 0a 00    ???..;PDX.MM???.
90: 04 04 04 04 0c 0c 0c 5a f1 00 00 00 00 00 00 00    ???????Z?.......
a0: 00 00 00 00 00 00 00 00 00 00 00 00 00 00 00 00    ................
b0: 00 00 00 00 00 00 00 00 00 00 00 00 00 00 00 00    ................
c0: 00 00 00 00 00 00 00 00 00 00 00 00 00 00 00 00    ................
d0: 00 00 00 00 00 00 00 00 00 00 00 00 00 00 00 00    ................
e0: 00 00 00 00 00 00 00 00 00 00 00 00 00 00 00 00    ................
f0: 00 00 00 00 00 00 00 00 00 00 00 00 00 00 00 12    ...............?
