     0  1  2  3  4  5  6  7  8  9  a  b  c  d  e  f    0123456789abcdef
00: 00 00 00 00 00 00 00 00 00 00 00 00 00 00 00 00    ................
10: 00 00 00 00 00 00 00 00 00 00 00 00 00 00 f2 f2    ..............??
20: 87 5f bc bf bc 18 27 1c 9b 14 9a 14 ff ff ff ff    ?_????'?????....
30: 66 66 66 00 00 00 00 00 00 00 00 00 00 00 5c 68    fff...........\h
40: 05 80 30 00 00 ff 00 ff 00 ff 00 ff 00 ff 81 7f    ??0...........??
50: 81 7f 81 7f 30 2a 30 2a 30 2a 30 2a c2 c2 c2 73    ????0*0*0*0*???s
60: 7a 73 e8 88 66 66 66 37 37 37 46 64 46 44 40 00    zs??fff777FdFD@.
70: 66 66 66 09 09 09 09 09 09 00 00 00 40 00 ec 1a    fff??????...@.??
80: 1f a4 0e 00 00 8a 98 dd fa 00 40 40 09 09 0b 00    ???..????.@@???.
90: 14 14 14 04 0c 0c 0c 5a f1 00 00 00 23 00 00 00    ???????Z?...#...
a0: 00 00 00 00 00 00 00 00 00 00 00 00 00 00 00 00    ................
b0: 00 00 00 00 00 00 00 00 00 00 00 00 00 00 00 00    ................
c0: 00 00 00 00 00 00 00 00 00 00 00 00 00 00 00 00    ................
d0: 00 00 00 00 00 00 00 00 00 00 00 00 00 00 00 00    ................
e0: 00 00 00 00 00 00 00 00 00 00 00 00 00 00 00 00    ................
f0: 00 00 00 00 00 00 00 00 00 00 00 00 00 00 00 00    ................

