     0  1  2  3  4  5  6  7  8  9  a  b  c  d  e  f    0123456789abcdef
00: 00 00 00 00 00 00 00 00 00 00 00 00 00 00 00 00    ................
10: 00 00 00 00 00 00 00 00 00 00 00 00 00 00 00 00    ................
20: 8a af c5 c3 c2 ae 2e 30 2c 29 2c 2a 18 0e bf 0b    ??????.0,),*????
30: 1e 0b ff ff ff ff 3f 47 6f 00 00 00 00 00 5c b1    ??....?Go.....\?
40: 05 00 00 00 00 00 00 fc 1e 0c 7e 98 64 da b3 cd    ?......???~?d???
50: b3 cd b3 cd 64 da 81 58 81 58 81 3c 81 37 81 4b    ????d??X?X?<?7?K
60: 81 50 50 46 50 46 78 69 f0 ff f0 ff 00 3f 00 ff    ?PPFPFxi?.?..?..
70: 00 ff 00 ff 00 ff 00 ff 00 ff fd 1e 0c 00 00 00    ..........???...
80: a9 a9 49 99 90 cc ff fa e8 88 3f 47 6f 00 00 00    ??I???.????Go...
90: 40 40 2f 2f 2f 2d 7f 7f 7f 7f 7f 7f 22 02 02 a4    @@///-??????"???
a0: 28 69 db 00 04 04 04 04 2f 2f 2f 01 1f 00 5f 5f    (i?.????///??.__
b0: 7f 7f 7f 7f 00 00 00 c0 00 00 00 30 00 0e 00 00    ????...?...0.?..
c0: 00 80 40 00 7f 7f 7f 7f 7f 7f 00 00 00 00 00 00    .?@.??????......
d0: 00 ff ff ff ff ff ff ff ff ff ff 6f ff ff ff ff    ...........o....
e0: 00 46 00 4e 00 00 00 00 1c 00 00 00 00 00 00 00    .F.N....?.......
f0: 00 00 00 00 00 00 00 00 00 00 00 00 00 00 00 00    ................
