     0  1  2  3  4  5  6  7  8  9  a  b  c  d  e  f    0123456789abcdef
00: 00 00 00 00 00 00 00 00 00 00 00 00 00 00 00 00    ................
10: 00 00 00 00 00 00 00 00 00 00 00 00 00 00 00 00    ................
20: 89 60 bf c4 be 1f 24 24 e0 0b ff ff 9c 0b ff ff    ?`????$$??..??..
30: ff ff ff 00 00 00 00 00 00 00 00 00 00 00 5c 68    ..............\h
40: 05 80 08 00 00 ff 00 ff 00 ff 00 ff 00 ff 81 7f    ???...........??
50: 81 7f 81 7f 30 2a 30 2a 30 2a ff ff 62 62 62 aa    ????0*0*0*..bbb?
60: aa aa e8 88 44 44 44 1e 1e 1e 7f 64 7f 44 40 00    ????DDD????d?D@.
70: ff ff ff 09 09 09 09 09 09 00 00 00 40 00 ec 1a    ...??????...@.??
80: 1f a4 0e 00 00 a4 3c c9 0c 00 40 40 09 09 0b 00    ???..?<??.@@???.
90: 14 14 14 04 0c 0c 0c 5a f1 00 00 00 23 00 00 00    ???????Z?...#...
a0: 00 00 00 00 00 00 00 00 00 00 00 00 00 00 00 00    ................
b0: 00 00 00 00 00 00 00 00 00 00 00 00 00 00 00 00    ................
c0: 00 00 00 00 00 00 00 00 00 00 00 00 00 00 00 00    ................
d0: 00 00 00 00 00 00 00 00 00 00 00 00 00 00 00 00    ................
e0: 00 00 00 00 00 00 00 00 00 00 00 00 00 00 00 00    ................
f0: 00 00 00 00 00 00 00 00 00 00 00 00 00 00 00 00    ................

