     0  1  2  3  4  5  6  7  8  9  a  b  c  d  e  f    0123456789abcdef
00: 53 43 59 40 04 00 0c 00 00 00 00 00 00 08 00 01    SCY@?.?......?.?
10: 00 00 00 c0 00 00 00 00 00 00 fc 00 00 00 00 00    ...?......?.....
20: 00 00 00 00 00 00 00 00 00 00 00 00 00 00 00 00    ................
30: 00 00 a5 00 00 9c 00 00 00 00 00 00 00 00 00 00    ..?..?..........
40: 00 00 c0 00 00 cb 00 00 f3 00 00 00 00 00 00 00    ..?..?..?.......
50: 00 00 08 04 00 3c 48 49 00 00 0b 00 00 00 00 00    ..??.<HI..?.....
60: 00 00 00 00 ab ff 7b 35 00 00 00 51 54 00 00 01    ....?.{5...QT..?
70: 00 01 00 b1 11 cb e4 00 00 00 00 00 00 00 00 00    .?.????.........
80: 00 01 00 a2 16 00 e4 00 00 00 00 00 00 00 00 00    .?.??.?.........
90: 00 01 00 9a 17 00 b2 00 00 00 00 00 00 00 00 00    .?.??.?.........
a0: 00 00 00 04 00 01 7b 35 00 00 00 32 00 00 00 01    ...?.?{5...2...?
b0: 00 00 00 00 00 00 00 00 00 00 00 32 00 00 00 00    ...........2....
c0: 00 00 00 00 00 00 00 00 00 00 00 00 00 00 00 00    ................
d0: a7 01 00 b1 11 cb e4 00 00 00 00 00 00 00 00 00    ??.????.........
e0: 9c 01 00 9a 17 00 ff 00 00 00 00 00 00 00 00 00    ??.??...........
f0: 00 00 00 00 00 00 00 00 00 00 00 00 00 00 00 00    ................
