     0  1  2  3  4  5  6  7  8  9  a  b  c  d  e  f    0123456789abcdef
00: 48 45 41 44 45 52 30 3b 53 32 36 31 31 33 2d 45    HEADER0;S26113-E
10: 34 36 31 2d 56 36 30 3b 47 53 30 31 3b 52 45 56    461-V60;GS01;REV
20: 30 35 3b 44 41 54 45 30 33 33 39 3b 50 32 30 30    05;DATE0339;P200
30: 57 3b 49 35 4d 49 4e 30 2e 32 41 3b 49 41 55 58    W;I5MIN0.2A;IAUX
40: 32 30 30 30 6d 41 3b 46 41 4e 50 55 4c 53 32 3b    2000mA;FANPULS2;
50: 4d 4f 4e 31 3b 46 41 4e 4f 46 46 31 3b 46 41 4e    MON1;FANOFF1;FAN
60: 43 31 3b 4e 4d 49 4e 32 39 3b 4e 4d 41 58 36 32    C1;NMIN29;NMAX62
70: 3b 52 45 46 37 30 0f 00 00 00 00 00 00 00 00 00    ;REF70?.........
80: 00 00 00 00 00 00 00 00 00 03 00 00 00 00 00 00    .........?......
90: 00 00 00 00 00 00 00 00 00 00 00 00 00 00 00 00    ................
a0: 00 00 00 00 00 00 00 00 02 08 19 e0 1d 3e c6 4c    ........?????>?L
b0: 49 54 45 4f 4e d0 50 4f 57 45 52 53 55 50 50 4c    ITEON?POWERSUPPL
c0: 59 20 32 30 30 57 c0 cf 53 32 36 31 31 33 2d 45    Y 200W??S26113-E
d0: 34 36 31 2d 56 36 30 01 70 c4 47 53 30 31 01 08    461-V60?p?GS01??
e0: c1 00 00 00 00 00 00 ef 00 00 00 00 00 00 00 00    ?......?........
f0: ff ff ff ff ff ff ff ff ff ff ff ff ff ff ff ff    ................
