     0  1  2  3  4  5  6  7  8  9  a  b  c  d  e  f    0123456789abcdef
00: 48 45 52 10 08 00 00 00 00 00 00 00 00 00 18 01    HER??.........??
10: 00 00 00 00 00 00 00 00 00 00 ff 00 00 00 00 00    ................
20: 00 00 00 02 00 00 00 00 00 00 00 00 00 00 00 00    ...?............
30: 00 00 a2 00 00 ff 00 00 00 00 00 00 00 00 00 00    ..?.............
40: 00 00 c5 00 00 bd 00 00 f7 00 00 00 00 00 00 00    ..?..?..?.......
50: 00 00 08 03 00 01 48 59 00 00 0b 00 00 00 00 00    ..??.?HY..?.....
60: 00 00 08 01 a8 01 66 35 00 00 00 00 00 00 00 01    ..????f5.......?
70: 00 01 00 bb 11 cb cd 00 00 00 00 00 00 00 00 00    .?.????.........
80: 00 01 00 ad 16 00 b9 00 00 00 00 00 00 00 00 00    .?.??.?.........
90: 00 00 00 98 17 00 b1 00 00 00 00 00 00 00 00 00    ...??.?.........
a0: 00 00 00 00 00 00 00 00 00 00 00 00 00 00 00 00    ................
b0: 00 00 08 00 00 01 7b 35 00 00 00 00 00 00 00 01    ..?..?{5.......?
c0: 00 00 00 00 00 00 00 00 00 00 00 00 00 00 00 00    ................
d0: 00 00 00 00 00 00 00 00 00 00 00 00 00 00 00 00    ................
e0: 00 00 00 00 00 00 00 00 00 00 00 00 00 00 00 00    ................
f0: 00 00 00 00 00 00 00 00 00 00 00 00 00 00 00 00    ................
