     0,8  1,9  2,a  3,b  4,c  5,d  6,e  7,f
00: ff80 ff00 ff00 ff40 ff8f ffc7 ffc2 0017 
08: 0000 9cbf 8ead 4655 bee8 ff4f ff2f ffa0 
10: ff00 ff00 ff60 ff00 ff00 ff00 ff00 ff00 
18: ff00 ff00 ff00 ff00 ff00 ff00 ff00 ff80 
20: ff00 ff00 ff00 ff00 ff00 ff00 ff00 ff00 
28: ff00 ff00 ff00 ff00 ff00 ff00 ff00 ff00 
30: ff00 ff00 ff00 ff00 ff00 ff00 ff00 ff00 
38: ff00 ff00 ff00 ff00 ff00 ff00 ff00 ff00 
40: ff00 ff00 ff00 ff00 ff00 ff00 ff00 ff00 
48: ff00 ff00 ff00 ff00 ff00 ff00 ff00 ff00 
50: ff00 ff00 ff00 ff00 ff00 ff00 ff00 ff00 
58: ff00 ff00 ff00 ff00 ff00 ff00 ff00 ff00 
60: ff00 ff00 ff00 ff00 ff00 ff00 ff00 ff00 
68: ff00 ff00 ff00 ff00 ff00 ff00 ff00 ff00 
70: ff00 ff00 ff00 ff00 ff00 ff00 ff00 ff00 
78: ff00 ff00 ff00 ff00 ff00 ff00 ff00 ff00 
80: ff00 ff00 ff00 ff00 ff00 ff00 ff00 ff00 
88: ff00 ff00 ff00 ff00 ff00 ff00 ff00 ff00 
90: ff00 ff00 ff00 ff00 ff00 ff00 ff00 ff00 
98: ff00 ff00 ff00 ff00 ff00 ff00 ff00 ff00 
a0: ff00 ff00 ff00 ff00 ff00 ff00 ff00 ff00 
a8: ff00 ff00 ff00 ff00 ff00 ff00 ff00 ff00 
b0: ff00 ff00 ff00 ff00 ff00 ff00 ff00 ff00 
b8: ff00 ff00 ff00 ff00 ff00 ff00 ff00 ff00 
c0: ff00 ff00 ff00 ff00 ff00 ff00 ff00 ff00 
c8: ff00 ff00 ff00 ff00 ff00 ff00 ff00 ff00 
d0: ff00 ff00 ff00 ff00 ff00 ff00 ff00 ff00 
d8: ff00 ff00 ff00 ff00 ff00 ff00 ff00 ff00 
e0: ff00 ff00 ff00 ff00 ff00 ff00 ff00 ff00 
e8: ff00 ff00 ff00 ff00 ff00 ff00 ff00 ff00 
f0: ff00 ff00 ff00 ff00 ff00 ff00 ff00 ff00 
f8: ff00 ff00 ff00 ff00 ff00 ff00 ff00 ff00 
