# Maarten D., February 2005

     0,8  1,9  2,a  3,b  4,c  5,d  6,e  7,f
00: 0020 0080 0000 0040 00a5 00b4 0000 003d 
08: f0f0 a8b3 8aa3 6f79 cadb 005b 00a5 0050 
10: 0000 0000 00d8 009e 00b2 00d9 0000 00b4 
18: 0000 0000 0000 0000 0000 0000 0000 0000 
20: 0000 0000 0000 0000 0000 0000 0000 0000 
28: 0000 0000 0000 0000 0000 0000 0000 0000 
30: 0000 0000 0000 0000 0000 0000 0000 0000 
38: 0000 0000 0000 0000 0000 0000 0000 0000 
40: 0000 0000 0000 0000 0000 0000 0000 0000 
48: 0000 0000 0000 0000 0000 0000 0000 0000 
50: 0000 0000 0000 0000 0000 0000 0000 0000 
58: 0000 0000 0000 0000 0000 0000 0000 0000 
60: 0000 0000 0000 0000 0000 0000 0000 0000 
68: 0000 0000 0000 0000 0000 0000 0000 0000 
70: 0000 0000 0000 0000 0000 0000 0000 0000 
78: 0000 0000 0000 0000 0000 0000 0000 0000 
80: 0000 0000 0000 0000 0000 0000 0000 0000 
88: 0000 0000 0000 0000 0000 0000 0000 0000 
90: 0000 0000 0000 0000 0000 0000 0000 0000 
98: 0000 0000 0000 0000 0000 0000 0000 0000 
a0: 0000 0000 0000 0000 0000 0000 0000 0000 
a8: 0000 0000 0000 0000 0000 0000 0000 0000 
b0: 0000 0000 0000 0000 0000 0000 0000 0000 
b8: 0000 0000 0000 0000 0000 0000 0000 0000 
c0: 0000 0000 0000 0000 0000 0000 0000 0000 
c8: 0000 0000 0000 0000 0000 0000 0000 0000 
d0: 0000 0000 0000 0000 0000 0000 0000 0000 
d8: 0000 0000 0000 0000 0000 0000 0000 0000 
e0: 0000 0000 0000 0000 0000 0000 0000 0000 
e8: 0000 0000 0000 0000 0000 0000 0000 0000 
f0: 0000 0000 0000 0000 0000 0000 0000 0000 
f8: 0000 0000 0000 0000 0000 0000 0000 0000 

