     0,8  1,9  2,a  3,b  4,c  5,d  6,e  7,f
00: 2745 7f13 4b0a 9202 7f13 0008 0800 0000 
08: ffff ffff XXXX aaf3 ffff c0ff 4954 6022 
10: 2745 9013 4b0a 9402 9013 0008 0800 0000 
18: ffff ffff XXXX aaf3 ffff c0ff 4954 6022 
20: 2745 9013 4b0a 9402 9013 0008 0000 0000 
28: ffff ffff XXXX aaf3 ffff c0ff 4954 6022 
30: 2745 af13 4b0a 9802 af13 0008 0800 0000 
38: ffff ffff XXXX aaf3 ffff c0ff 4954 6022 
40: 2745 af13 4b0a 9802 af13 0008 0000 0000 
48: ffff ffff XXXX aaf3 ffff c0ff 4954 6022 
50: 2745 b313 4b0a 9802 b313 0008 0800 0000 
58: ffff ffff XXXX aaf3 ffff c0ff 4954 6022 
60: 2745 b313 4b0a 9802 b313 0008 0000 0000 
68: ffff ffff XXXX aaf3 ffff c0ff 4954 6022 
70: 2745 b313 4b0a 9802 b313 0008 0800 0000 
78: ffff ffff XXXX aaf3 ffff c0ff 4954 6022 
80: 2745 aa13 4b0a 9702 aa13 0008 0000 0000 
88: ffff ffff XXXX aaf3 ffff c0ff 4954 6022 
90: 2745 aa13 4b0a 9702 aa13 0008 0000 0000 
98: ffff ffff XXXX aaf3 ffff c0ff 4954 6022 
a0: 2745 b713 4b0a 9902 b713 0008 0800 0000 
a8: ffff ffff XXXX aaf3 ffff c0ff 4954 6022 
b0: 2745 b713 4b0a 9902 b713 0008 0000 0000 
b8: ffff ffff XXXX aaf3 ffff c0ff 4954 6022 
c0: 2745 a713 4b0a 9702 a713 0008 0800 0000 
c8: ffff ffff XXXX aaf3 ffff c0ff 4954 6022 
d0: 2745 a713 4b0a 9702 a713 0008 0000 0000 
d8: ffff ffff XXXX aaf3 ffff c0ff 4954 6022 
e0: 2745 b513 4b0a 9902 b513 0008 0800 0000 
e8: ffff ffff XXXX aaf3 ffff c0ff 4954 6022 
f0: 2745 b513 4b0a 9902 b513 0008 0000 0000 
f8: ffff ffff XXXX aaf3 ffff c0ff 4954 6022 
