     0,8  1,9  2,a  3,b  4,c  5,d  6,e  7,f
00: 5f00 0000 0000 0000 0000 c6c1 091b 1208
08: XXXX XXXX XXXX XXXX XXXX XXXX XXXX XXXX
10: XXXX XXXX XXXX XXXX XXXX XXXX XXXX XXXX
18: XXXX XXXX XXXX XXXX XXXX XXXX XXXX XXXX
20: XXXX XXXX XXXX XXXX XXXX XXXX XXXX XXXX
28: XXXX XXXX XXXX XXXX XXXX XXXX XXXX XXXX
30: XXXX XXXX XXXX XXXX XXXX XXXX XXXX XXXX
38: XXXX XXXX XXXX XXXX XXXX XXXX XXXX XXXX
40: XXXX XXXX XXXX XXXX XXXX XXXX XXXX XXXX
48: XXXX XXXX XXXX XXXX XXXX XXXX XXXX XXXX
50: XXXX XXXX XXXX XXXX XXXX XXXX XXXX XXXX
58: XXXX XXXX XXXX XXXX XXXX XXXX XXXX XXXX
60: XXXX XXXX XXXX XXXX XXXX XXXX XXXX XXXX
68: XXXX XXXX XXXX XXXX XXXX XXXX XXXX XXXX
70: XXXX XXXX XXXX XXXX XXXX XXXX XXXX XXXX
78: XXXX XXXX XXXX XXXX XXXX XXXX XXXX XXXX
80: XXXX XXXX XXXX XXXX XXXX XXXX XXXX XXXX
88: XXXX XXXX XXXX XXXX XXXX XXXX XXXX XXXX
90: XXXX XXXX XXXX XXXX XXXX XXXX XXXX XXXX
98: XXXX XXXX XXXX XXXX XXXX XXXX XXXX XXXX
a0: XXXX XXXX XXXX XXXX XXXX XXXX XXXX XXXX
a8: XXXX XXXX XXXX XXXX XXXX XXXX XXXX XXXX
b0: XXXX XXXX XXXX XXXX XXXX XXXX XXXX XXXX
b8: XXXX XXXX XXXX XXXX XXXX XXXX XXXX XXXX
c0: XXXX XXXX XXXX XXXX XXXX XXXX XXXX XXXX
c8: XXXX XXXX XXXX XXXX XXXX XXXX XXXX XXXX
d0: XXXX XXXX XXXX XXXX XXXX XXXX XXXX XXXX
d8: XXXX XXXX XXXX XXXX XXXX XXXX XXXX XXXX
e0: XXXX XXXX XXXX XXXX XXXX XXXX XXXX XXXX
e8: XXXX XXXX XXXX XXXX XXXX XXXX XXXX XXXX
f0: XXXX XXXX XXXX XXXX XXXX XXXX XXXX XXXX
f8: XXXX XXXX XXXX XXXX XXXX XXXX XXXX XXXX
