# i2cdump -y 15 0x59 w

     0,8  1,9  2,a  3,b  4,c  5,d  6,e  7,f
00: XXXX 2680 XXXX ffff XXXX XXXX XXXX XXXX
08: XXXX XXXX XXXX XXXX XXXX XXXX XXXX XXXX
10: XXXX XXXX XXXX XXXX XXXX XXXX XXXX XXXX
18: XXXX 45b0 XXXX XXXX XXXX XXXX XXXX XXXX
20: XXXX XXXX XXXX XXXX XXXX XXXX XXXX XXXX
28: XXXX XXXX XXXX XXXX XXXX XXXX XXXX XXXX
30: XXXX XXXX XXXX XXXX XXXX XXXX XXXX XXXX
38: XXXX XXXX XXXX XXXX XXXX XXXX XXXX XXXX
40: XXXX XXXX XXXX 0000 XXXX XXXX XXXX XXXX
48: XXXX XXXX XXXX XXXX XXXX XXXX XXXX 0960
50: XXXX 07d0 XXXX XXXX XXXX XXXX XXXX 0fff
58: 0000 XXXX XXXX XXXX XXXX XXXX XXXX XXXX
60: XXXX XXXX XXXX XXXX XXXX XXXX XXXX XXXX
68: XXXX XXXX XXXX XXXX XXXX XXXX XXXX XXXX
70: XXXX XXXX XXXX XXXX XXXX XXXX XXXX XXXX
78: fc02 0002 2400 XXXX 5900 3200 0882 XXXX
80: cf00 XXXX XXXX XXXX XXXX XXXX XXXX XXXX
88: 0a5b XXXX XXXX 0a5d XXXX 015c XXXX XXXX
90: XXXX XXXX XXXX XXXX XXXX XXXX XXXX XXXX
98: XXXX 4e03 4c08 4102 XXXX XXXX XXXX XXXX
a0: XXXX XXXX XXXX XXXX XXXX XXXX XXXX XXXX
a8: XXXX XXXX XXXX XXXX XXXX XXXX XXXX XXXX
b0: XXXX XXXX XXXX XXXX XXXX XXXX XXXX XXXX
b8: XXXX XXXX XXXX XXXX XXXX XXXX XXXX XXXX
c0: XXXX XXXX XXXX XXXX XXXX XXXX XXXX XXXX
c8: XXXX XXXX XXXX XXXX XXXX XXXX XXXX XXXX
d0: 0003 0003 0001 0fff 0fff 019a ffff fd00
d8: 0800 d100 020c 0700 0a5b 0a5d 0003 0001
e0: 020c 0002 020c XXXX XXXX XXXX XXXX XXXX
e8: XXXX XXXX XXXX XXXX XXXX XXXX XXXX XXXX
f0: XXXX XXXX XXXX XXXX XXXX XXXX XXXX XXXX
f8: XXXX XXXX XXXX XXXX XXXX XXXX XXXX XXXX
