     0  1  2  3  4  5  6  7  8  9  a  b  c  d  e  f    0123456789abcdef
00: 3a 3d 81 83 08 46 00 46 00 83 08 46 00 46 00 00    :=???F.F.??F.F..
10: 80 10 00 00 00 00 e5 00 00 78 1a 1a 00 00 00 00    ??....?..x??....
20: 00 14 00 00 00 00 00 00 00 00 00 00 00 00 00 00    .?..............
30: 00 00 00 00 00 00 00 00 00 00 00 00 00 00 00 00    ................
40: 00 00 00 00 00 00 0f 0b 94 09 10 16 06 0b 00 03    ......????????.?
50: 00 06 46 07 50 08 58 0b 5b 0c 5e 0d 61 0f 64 16    .?F?P?X?[?^?a?d?
60: 00 00 00 00 00 00 00 00 00 00 00 00 00 00 00 00    ................
70: 00 00 00 00 00 00 00 00 00 00 00 00 00 00 00 00    ................
80: 00 00 00 00 00 00 00 00 00 00 00 00 00 00 00 00    ................
90: 00 00 00 00 00 00 00 00 00 00 00 00 00 00 00 00    ................
a0: 00 00 00 00 00 00 00 00 00 00 00 00 00 00 00 00    ................
b0: a8 20 29 d5 1d 01 0d 00 00 00 00 00 00 00 00 00    ? )????.........
c0: 00 00 00 00 00 00 00 27 00 00 00 00 00 00 00 01    .......'.......?
d0: 00 00 00 00 00 00 00 00 00 00 00 00 00 00 00 00    ................
e0: 00 00 00 00 00 00 00 00 00 00 00 00 00 00 00 00    ................
f0: 00 00 00 00 00 00 00 00 00 00 00 00 00 00 01 51    ..............?Q
