# From: Matthew G.

     0  1  2  3  4  5  6  7  8  9  a  b  c  d  e  f    0123456789abcdef
00: 34 3e 00 03 08 46 00 46 00 03 08 46 00 46 00 00    4>.??F.F.??F.F..
10: 60 10 00 00 00 00 e5 00 00 7b 1f 1f 00 00 00 00    `?....?..{??....
20: 00 64 00 00 00 00 00 00 00 00 00 00 00 00 00 00    .d..............
30: 00 00 00 00 00 00 00 00 00 00 00 00 00 00 00 00    ................
40: 00 00 00 00 00 00 af 0f ff ff 00 00 05 08 00 05    ......??....??.?
50: 00 04 32 05 46 06 5a 07 5f 0b 64 0d 69 10 69 10    .?2?F?Z?_?d?i?i?
60: 00 00 00 00 00 00 00 00 00 00 00 00 00 00 00 00    ................
70: 00 00 00 00 00 00 00 00 00 00 00 00 00 00 00 00    ................
80: 00 00 00 00 00 00 00 00 00 00 00 00 00 00 00 00    ................
90: 00 00 00 00 00 00 00 00 00 00 00 00 00 00 00 00    ................
a0: 00 00 00 00 00 00 00 00 00 00 00 00 00 00 00 00    ................
b0: c0 20 2a d1 19 01 0d 00 00 00 00 00 00 00 00 00    ? *????.........
c0: 00 00 00 00 00 00 00 27 00 00 00 00 00 00 00 02    .......'.......?
d0: 00 00 00 00 00 00 00 00 00 00 00 00 00 00 00 00    ................
e0: 00 00 00 00 00 00 00 00 00 00 00 00 00 00 00 00    ................
f0: 00 00 00 00 00 00 00 00 00 00 00 00 00 00 01 51    ..............?Q
