     0,8  1,9  2,a  3,b  4,c  5,d  6,e  7,f
00: 7f1c ff00 7f4b 7f50 7f50 7f50 7f50 7f50
08: 7f1c ff00 7f4b 7f50 7f50 7f50 7f50 7f50
10: 7f1c ff00 7f4b 7f50 7f50 7f50 7f50 7f50
18: 7f1c ff00 7f4b 7f50 7f50 7f50 7f50 7f50
20: 7f1c ff00 7f4b 7f50 7f50 7f50 7f50 7f50
28: 7f1c ff00 7f4b 7f50 7f50 7f50 7f50 7f50
30: 7f1c ff00 7f4b 7f50 7f50 7f50 7f50 7f50
38: 7f1c ff00 7f4b 7f50 7f50 7f50 7f50 7f50
40: 7f1c ff00 7f4b 7f50 7f50 7f50 7f50 7f50
48: 7f1c ff00 7f4b 7f50 7f50 7f50 7f50 7f50
50: 7f1c ff00 7f4b 7f50 7f50 7f50 7f50 7f50
58: 7f1c ff00 7f4b 7f50 7f50 7f50 7f50 7f50
60: 7f1c ff00 7f4b 7f50 7f50 7f50 7f50 7f50
68: 7f1c ff00 7f4b 7f50 7f50 7f50 7f50 7f50
70: 7f1c ff00 7f4b 7f50 7f50 7f50 7f50 7f50
78: 7f1c ff00 7f4b 7f50 7f50 7f50 7f50 7f50
80: 7f1c ff00 7f4b 7f50 7f50 7f50 7f50 7f50
88: 7f1c ff00 7f4b 7f50 7f50 7f50 7f50 7f50
90: 7f1c ff00 7f4b 7f50 7f50 7f50 7f50 7f50
98: 7f1c ff00 7f4b 7f50 7f50 7f50 7f50 7f50
a0: 7f1c ff00 7f4b 7f50 7f50 7f50 7f50 7f50
a8: 7f1c ff00 7f4b 7f50 7f50 7f50 7f50 7f50
b0: 7f1c ff00 7f4b 7f50 7f50 7f50 7f50 7f50
b8: 7f1c ff00 7f4b 7f50 7f50 7f50 7f50 7f50
c0: 7f1c ff00 7f4b 7f50 7f50 7f50 7f50 7f50
c8: 7f1c ff00 7f4b 7f50 7f50 7f50 7f50 7f50
d0: 7f1c ff00 7f4b 7f50 7f50 7f50 7f50 7f50
d8: 7f1c ff00 7f4b 7f50 7f50 7f50 7f50 7f50
e0: 7f1c ff00 7f4b 7f50 7f50 7f50 7f50 7f50
e8: 7f1c ff00 7f4b 7f50 7f50 7f50 7f50 7f50
f0: 7f1c ff00 7f4b 7f50 7f50 7f50 7f50 7f50
f8: 7f1c ff00 7f4b 7f50 7f50 7f50 7f50 7f50
