     0,8  1,9  2,a  3,b  4,c  5,d  6,e  7,f
00: 0802 8800 2000 0005 a000 0004 0004 0004
08: 0802 8800 2000 0005 a000 0004 0004 0004
10: 0802 8800 2000 0005 a000 0004 0004 0004
18: 0802 8800 2000 0005 a000 0004 0004 0004
20: 0802 8800 2000 0005 a000 0004 0004 0004
28: 0802 8800 2000 0005 a000 0004 0004 0004
30: 0802 8800 2000 0005 a000 0004 0004 0004
38: 0802 8800 2000 0005 a000 0004 0004 0004
40: 0802 8800 2000 0005 a000 0004 0004 0004
48: 0802 8800 2000 0005 a000 0004 0004 0004
50: 0802 8800 2000 0005 a000 0004 0004 0004
58: 0802 8800 2000 0005 a000 0004 0004 0004
60: 0802 8800 2000 0005 a000 0004 0004 0004
68: 0802 8800 2000 0005 a000 0004 0004 0004
70: 0802 8800 2000 0005 a000 0004 0004 0004
78: 0802 8800 2000 0005 a000 0004 0004 0004
80: 0802 8800 2000 0005 a000 0004 0004 0004
88: 0802 8800 2000 0005 a000 0004 0004 0004
90: 0802 8800 2000 0005 a000 0004 0004 0004
98: 0802 8800 2000 0005 a000 0004 0004 0004
a0: 0802 8800 2000 0005 a000 0004 0004 0004
a8: 0802 8800 2000 0005 a000 0004 0004 0004
b0: 0802 8800 2000 0005 a000 0004 0004 0004
b8: 0802 8800 2000 0005 a000 0004 0004 0004
c0: 0802 8800 2000 0005 a000 0004 0004 0004
c8: 0802 8800 2000 0005 a000 0004 0004 0004
d0: 0802 8800 2000 0005 a000 0004 0004 0004
d8: 0802 8800 2000 0005 a000 0004 0004 0004
e0: 0802 8800 2000 0005 a000 0004 0004 0004
e8: 0802 8800 2000 0005 a000 0004 0004 0004
f0: 0802 8800 2000 0005 a000 0004 0004 0004
f8: 0802 8800 2000 0005 a000 0004 0004 0004
