     0  1  2  3  4  5  6  7  8  9  a  b  c  d  e  f    0123456789abcdef
00: 01 7b 0c 00 00 28 49 49 49 49 49 49 c7 3c 16 00    ?{?..(IIIIII?<?.
10: 01 00 00 00 00 28 49 49 49 49 49 49 c7 3c 16 00    ?....(IIIIII?<?.
20: 98 ac c1 c6 b3 c1 c1 23 bb ff b4 b4 d2 be c7 b4    ???????#?.??????
30: 87 7a c7 b4 77 61 80 71 34 2d 3e 39 71 71 00 0c    ?z??wa?q4->9qq.?
40: 01 00 00 00 00 28 49 49 49 49 49 49 c7 3c 16 00    ?....(IIIIII?<?.
50: 01 00 00 00 00 28 49 49 49 49 49 49 c7 3c 16 00    ?....(IIIIII?<?.
60: 98 ac c1 c6 b3 c1 c1 23 bb ff b4 b4 d2 be c7 b4    ???????#?.??????
70: 87 7a c7 b4 77 61 80 71 34 2d 3e 39 71 71 00 0c    ?z??wa?q4->9qq.?
80: 01 00 00 00 00 28 49 49 49 49 49 49 c7 3c 16 00    ?....(IIIIII?<?.
90: 01 00 00 00 00 28 49 49 49 49 49 49 c7 3c 16 00    ?....(IIIIII?<?.
a0: 98 ac c1 c6 b3 c1 c1 23 bb ff b4 b4 d2 be c7 b4    ???????#?.??????
b0: 87 7a c7 b4 77 61 80 71 34 2d 3e 39 71 71 00 0c    ?z??wa?q4->9qq.?
c0: 01 00 00 00 00 28 49 49 49 49 49 49 c7 3c 16 00    ?....(IIIIII?<?.
d0: 01 00 00 00 00 28 49 49 49 49 49 49 c7 3c 16 00    ?....(IIIIII?<?.
e0: 98 ac c1 c6 b3 c1 c1 23 bb ff b4 b4 d2 be c7 b4    ???????#?.??????
f0: 87 7a c7 b4 77 61 80 71 34 2d 3e 39 71 71 00 0c    ?z??wa?q4->9qq.?

