     0  1  2  3  4  5  6  7  8  9  a  b  c  d  e  f    0123456789abcdef
00: 24 26 00 00 00 50 50 64 64 64 64 64 64 64 64 64    $&...PPddddddddd
10: 64 64 64 64 64 64 64 64 64 64 64 64 64 64 64 64    dddddddddddddddd
20: 64 64 64 64 64 64 64 64 64 64 64 64 64 64 64 64    dddddddddddddddd
30: 21 22 22 22 22 00 00 00 5a 5a 6e 6e 6e 6e 6e 6e    !""""...ZZnnnnnn
40: 6e 6e 7f 7f 7f 7f 7f 7f 7f 7f 7f 7f 7f 7f 7f 7f    nn??????????????
50: 7f 7f 7f 7f 7f 7f 7f 7f 7f 7f 7f 7f 7f 7f 7f 7f    ????????????????
60: 7f 7f 7f 7f 7f 7f 7f 7f 7f 7f 7f 7f 7f 7f 7f 7f    ????????????????
70: 7f 7f 7f 7f 7f 7f 7f 7f 7f 7f 7f 7f 7f 7f 7f 7f    ????????????????
80: 7f 7f 7f 7f 7f 7f 7f 7f 7f 7f 7f 7f 7f 7f 7f 7f    ????????????????
90: 7f 7f 7f 7f 7f 7f 7f 7f 7f 7f 7f 7f 7f 7f 7f 7f    ????????????????
a0: 7f 7f 7f 7f 7f 7f 7f 7f 7f 7f 7f 7f 7f 7f 7f 7f    ????????????????
b0: 7f 7f 7f 7f 7f 7f 7f 7f 7f 7f 7f 7f 7f 7f 7f 7f    ????????????????
c0: 7f 7f 7f 7f 7f 7f 7f 7f 7f 7f 7f 7f 7f 7f 7f 7f    ????????????????
d0: 7f 7f 7f 7f 7f 7f 7f 7f 7f 7f 7f 7f 7f 7f 7f 7f    ????????????????
e0: 7f 7f 7f 7f 7f 7f 7f 7f 7f 7f 7f 7f 7f 7f 7f 7f    ????????????????
f0: 00 85 18 35 26 26 26 00 38 25 24 24 24 24 01 03    .??5&&&.8%$$$$??
