# Data from 0x00 to 0x57 is the same for each read.
# Data from 0x58 onwards is random, ie different for each read operation.
# 0x58 is one value, 0x59 .. 0xff is a different value but always the same.

     0  1  2  3  4  5  6  7  8  9  a  b  c  d  e  f    0123456789abcdef
00: 1d 7f 04 00 00 7f 7f 7f 7f 7f 7f 7f 7f 7f 7f 7f    ???..???????????
10: 7f 7f 7f 7f 7f 7f 7f 7f 7f 7f 7f 7f 7f 7f 7f 7f    ????????????????
20: 7f 7f 7f 7f 7f 7f 7f 7f 7f 7f 7f 7f 7f 7f 7f 7f    ????????????????
30: 7f 7f 7f 7f 7f 7f 7f 7f 7f 7f 7f 7f 7f 7f 7f 7f    ????????????????
40: 7f 7f 7f 7f 7f 7f 7f 7f 7f 7f 7f 7f 7f 7f 7f 7f    ????????????????
50: 00 01 14 31 33 33 33 00 58 05 05 05 05 05 05 05    .??1333.X???????
60: 05 05 05 05 05 05 05 05 05 05 05 05 05 05 05 05    ????????????????
70: 05 05 05 05 05 05 05 05 05 05 05 05 05 05 05 05    ????????????????
80: 05 05 05 05 05 05 05 05 05 05 05 05 05 05 05 05    ????????????????
90: 05 05 05 05 05 05 05 05 05 05 05 05 05 05 05 05    ????????????????
a0: 05 05 05 05 05 05 05 05 05 05 05 05 05 05 05 05    ????????????????
b0: 05 05 05 05 05 05 05 05 05 05 05 05 05 05 05 05    ????????????????
c0: 05 05 05 05 05 05 05 05 05 05 05 05 05 05 05 05    ????????????????
d0: 05 05 05 05 05 05 05 05 05 05 05 05 05 05 05 05    ????????????????
e0: 05 05 05 05 05 05 05 05 05 05 05 05 05 05 05 05    ????????????????
f0: 05 05 05 05 05 05 05 05 05 05 05 05 05 05 05 05    ????????????????
