     0  1  2  3  4  5  6  7  8  9  a  b  c  d  e  f    0123456789abcdef
00: 00 00 00 00 00 00 00 00 00 00 00 00 00 00 00 00    ................
10: 00 00 00 00 00 00 00 00 00 00 00 00 00 00 00 00    ................
20: 76 94 c0 c5 c2 1f 20 1f a7 06 ff ff 73 12 33 11    v????? ???..s?3?
30: ff ff 4d 00 00 00 00 00 00 00 00 00 00 00 01 62    ..M...........?b
40: 07 8b 01 04 00 ff 00 ff 00 ff 00 ff 00 ff 81 7f    ????..........??
50: 81 7f 81 7f ff ff ff ff ff ff ff ff 62 62 42 c4    ????........bbB?
60: c4 c4 e0 00 80 80 4d 5a 5a 25 64 64 2f 44 40 00    ???.??MZZ%dd/D@.
70: 1f 20 1f 32 00 07 00 00 00 00 00 40 28 31 6c 57    ? ?2.?.....@(1lW
80: 00 00 00 00 00 00 00 00 00 00 00 00 00 00 00 00    ................
90: 00 00 00 00 00 00 00 00 00 00 00 00 00 00 00 00    ................
a0: 00 00 00 00 00 00 00 00 00 00 00 00 00 00 00 00    ................
b0: 00 00 00 00 00 00 00 00 00 00 00 00 00 00 00 00    ................
c0: 00 00 00 00 00 00 00 00 00 00 00 00 00 00 00 00    ................
d0: 00 00 00 00 00 00 00 00 00 00 00 00 00 00 00 00    ................
e0: 00 00 00 00 00 00 00 00 00 00 00 00 00 00 00 00    ................
f0: 00 00 00 00 00 00 00 00 00 00 00 00 00 00 00 00    ................

