     0  1  2  3  4  5  6  7  8  9  a  b  c  d  e  f    0123456789abcdef
00: 00 00 00 00 00 00 00 00 00 00 00 00 00 00 00 00    ................
10: 00 00 00 32 55 00 04 32 55 ff 00 00 00 00 00 00    ...2U.?2U.......
20: 80 79 bf c3 c4 00 1b 1b ff ff 00 4b 00 8e 46 cc    ?y???.??...K.?F?
30: ae d4 ad d0 a0 8e 46 55 00 32 00 ed ed 00 02 04    ??????FU.2.??.??
40: 07 c0 80 c1 be 00 00 57 00 80 08 00 80 00 00 00    ?????..W.??.?...
50: 00 00 00 00 00 00 00 00 00 00 00 00 00 00 00 00    ................
60: 00 00 00 00 00 00 00 00 00 00 00 00 00 00 00 00    ................
70: 00 00 00 00 00 00 00 00 00 00 00 00 00 00 00 00    ................
80: 20 00 00 00 00 00 00 00 00 00 00 00 00 00 00 00     ...............
90: 00 00 00 00 00 00 00 00 00 00 00 00 00 00 00 00    ................
a0: 00 00 00 00 00 00 00 00 00 00 00 00 00 00 00 00    ................
b0: 00 00 00 00 00 00 00 00 00 00 00 00 00 00 00 00    ................
c0: 30 2e 00 00 5b 02 00 00 00 00 00 00 00 00 00 00    0...[?..........
d0: 00 00 00 33 00 00 00 00 00 00 00 00 00 00 00 00    ...3............
e0: 00 00 00 00 7f fc b4 00 00 00 00 00 00 00 00 00    ....???.........
f0: 00 00 00 00 00 00 00 00 00 00 00 00 00 00 00 00    ................
