# lm92-i2c-9-48
# Adapter: i2c-diolan-u2c at bus 003 device 013
# temp1:        +24.1°C  (low  = +10.0°C)
#                        (high = +64.0°C, hyst = +62.0°C)
#                        (crit = +80.0°C, hyst = +78.0°C)

     0,8  1,9  2,a  3,b  4,c  5,d  6,e  7,f
00: 380c b800 0001 0028 0005 0020 0020 0180
08: 380c b800 0001 0028 0005 0020 0020 0180
10: 380c b800 0001 0028 0005 0020 0020 0180
18: 380c b800 0001 0028 0005 0020 0020 0180
20: 380c b800 0001 0028 0005 0020 0020 0180
28: 380c b800 0001 0028 0005 0020 0020 0180
30: 380c b800 0001 0028 0005 0020 0020 0180
38: 380c b800 0001 0028 0005 0020 0020 0180
40: 380c b800 0001 0028 0005 0020 0020 0180
48: 380c b800 0001 0028 0005 0020 0020 0180
50: 380c b800 0001 0028 0005 0020 0020 0180
58: 380c b800 0001 0028 0005 0020 0020 0180
60: 380c b800 0001 0028 0005 0020 0020 0180
68: 380c b800 0001 0028 0005 0020 0020 0180
70: 380c b800 0001 0028 0005 0020 0020 0180
78: 380c b800 0001 0028 0005 0020 0020 0180
80: 380c b800 0001 0028 0005 0020 0020 0180
88: 380c b800 0001 0028 0005 0020 0020 0180
90: 380c b800 0001 0028 0005 0020 0020 0180
98: 380c b800 0001 0028 0005 0020 0020 0180
a0: 380c b800 0001 0028 0005 0020 0020 0180
a8: 380c b800 0001 0028 0005 0020 0020 0180
b0: 380c b800 0001 0028 0005 0020 0020 0180
b8: 380c b800 0001 0028 0005 0020 0020 0180
c0: 380c b800 0001 0028 0005 0020 0020 0180
c8: 380c b800 0001 0028 0005 0020 0020 0180
d0: 380c b800 0001 0028 0005 0020 0020 0180
d8: 380c b800 0001 0028 0005 0020 0020 0180
e0: 380c b800 0001 0028 0005 0020 0020 0180
e8: 380c b800 0001 0028 0005 0020 0020 0180
f0: 380c b800 0001 0028 0005 0020 0020 0180
f8: 380c b800 0001 0028 0005 0020 0020 0180

