     0  1  2  3  4  5  6  7  8  9  a  b  c  d  e  f    0123456789abcdef
00: 00 00 00 00 00 00 34 80 34 80 00 00 00 00 00 00    ......4?4?......
10: 00 35 00 35 00 80 00 80 e0 34 e0 34 00 80 00 80    .5.5.?.??4?4.?.?
20: 00 22 00 00 00 00 00 00 00 00 00 00 00 00 00 00    ."..............
30: 00 00 00 00 00 30 00 00 00 80 80 00 00 00 01 7a    .....0...??...?z
40: 00 00 00 00 00 00 00 00 00 00 00 00 00 00 00 00    ................
50: 35 80 22 00 34 80 be bd bc af c2 bc b0 ae c5 c3    5?".4???????????
60: 73 ab d4 ed ff c1 00 00 00 00 00 2c 00 00 fc ff    s???.?.....,..?.
70: fc ff fc ff fc ff 00 00 80 80 80 80 80 80 80 80    ?.?.?...????????
80: 3c 3c 23 23 00 00 00 00 00 00 00 00 00 00 00 00    <<##............
90: 00 ff 00 ff 00 ff 00 ff 00 ff 00 ff 00 ff 00 ff    ................
a0: 00 ff 00 ff 00 ff 00 ff 00 ff 00 ff 00 ff 00 ff    ................
b0: ff ff 17 17 fc ff fc ff fc ff fc ff 00 00 00 00    ..???.?.?.?.....
c0: 44 44 00 00 00 00 00 11 00 00 00 00 00 00 00 00    DD.....?........
d0: 00 00 00 00 00 00 00 00 00 00 00 00 00 00 00 00    ................
e0: 00 3f 00 80 03 ff 0f ff 0f 07 ff 07 ff 3f 00 00    .?.??.?.??.?.?..
f0: 09 09 08 08 06 10 04 08 0c 20 08 08 10 09 09 09    ????????? ??????
