     0  1  2  3  4  5  6  7  8  9  a  b  c  d  e  f    0123456789abcdef
00: 14 f4 00 00 02 00 00 55 00 00 02 00 00 55 00 00    ??..?..U..?..U..
10: b0 00 00 00 00 00 00 00 00 6e 00 00 00 00 00 00    ?........n......
20: 55 0a 00 00 00 00 00 00 00 00 00 00 00 00 00 00    U?..............
30: e0 00 00 00 00 00 00 00 00 00 00 00 00 00 00 00    ?...............
40: 00 00 00 00 00 00 00 00 00 00 00 00 00 00 00 00    ................
50: 00 00 00 00 00 00 00 00 00 00 00 00 00 00 00 00    ................
60: 00 00 00 00 00 00 00 00 00 00 00 00 00 00 00 00    ................
70: 00 00 00 00 00 00 00 00 00 00 00 00 00 00 00 00    ................
80: 00 00 00 00 00 00 00 00 00 00 00 00 00 00 00 00    ................
90: 00 00 00 00 00 00 00 00 00 00 00 00 00 00 00 00    ................
a0: 00 00 00 00 00 00 00 00 00 00 00 00 00 00 00 00    ................
b0: 58 98 9f 9a 9a 00 00 00 00 00 00 00 00 00 00 1f    X????..........?
c0: 00 00 00 00 00 00 00 00 00 00 00 00 00 00 00 00    ................
d0: 9a 00 00 00 00 00 00 00 00 00 00 00 00 00 00 00    ?...............
e0: 00 00 00 00 00 00 00 00 00 00 00 00 00 00 00 00    ................
f0: 00 00 00 00 00 00 00 00 00 00 00 00 00 00 01 b3    ..............??
