     0  1  2  3  4  5  6  7  8  9  a  b  c  d  e  f    0123456789abcdef
00: 00 00 00 00 02 07 0f 00 00 00 00 00 01 00 07 00    ....???.....?.?.
10: 16 15 15 00 00 00 00 00 00 15 15 00 00 00 00 00    ???......??.....
20: 00 d8 e0 00 00 00 00 00 00 d8 e0 00 00 00 00 00    .??......??.....
30: 00 00 00 00 00 00 00 00 00 00 00 00 00 00 00 00    ................
40: 55 6e 6e 00 00 00 00 00 00 55 55 00 00 00 00 00    Unn......UU.....
50: 00 00 00 00 00 00 00 00 00 00 0a 00 00 00 00 00    ..........?.....
60: 00 00 00 00 00 00 00 00 00 00 00 00 00 00 00 00    ................
70: 00 00 00 00 00 00 00 00 00 00 00 00 00 00 00 00    ................
80: 00 00 00 00 00 00 00 00 00 00 00 00 00 00 00 00    ................
90: 00 00 00 00 00 00 00 00 00 00 00 00 00 00 00 00    ................
a0: 00 00 00 00 00 00 00 00 00 00 00 00 00 00 00 00    ................
b0: 38 94 a0 99 89 00 00 00 00 00 00 00 00 00 00 00    8????...........
c0: 00 00 00 00 00 00 00 00 00 00 00 00 00 00 00 00    ................
d0: 9f 00 00 00 00 00 00 00 00 00 00 00 00 00 00 00    ?...............
e0: 00 00 00 00 00 00 00 00 00 00 00 00 00 00 00 00    ................
f0: 00 00 00 00 00 00 00 00 00 00 00 00 00 00 01 89    ..............??
