     0  1  2  3  4  5  6  7  8  9  a  b  c  d  e  f    0123456789abcdef
00: 00 00 00 00 00 00 00 00 00 00 00 00 00 00 00 00    ................
10: 00 00 00 00 00 00 00 00 00 00 00 00 00 00 00 00    ................
20: 00 00 00 00 00 00 00 00 ff ff ff ff ff ff ff ff    ................
30: ff ff ff 00 00 00 00 00 00 00 00 00 00 00 01 68    ..............?h
40: 05 80 3c 00 00 ff 00 ff 00 ff 00 ff 00 ff 81 7f    ??<...........??
50: 81 7f 81 7f ff ff ff ff ff ff ff ff 62 62 62 c4    ????........bbb?
60: c4 c4 00 00 80 80 80 00 00 00 64 64 64 44 44 a4    ??..???...dddDD?
70: ff ff ff 00 00 00 08 00 00 22 6e 6e 6e 00 00 00    ......?.."nnn...
80: 01 00 00 00 00 00 00 00 00 00 00 00 00 00 00 00    ?...............
90: 00 00 00 00 00 00 00 00 00 00 00 00 00 00 00 00    ................
a0: 00 00 00 00 00 00 00 00 00 00 00 00 00 00 00 00    ................
b0: 00 00 00 00 00 00 00 00 00 00 00 00 00 00 00 00    ................
c0: 00 00 00 00 00 00 00 00 00 00 00 00 00 00 00 00    ................
d0: 00 00 00 00 00 00 00 00 00 00 00 00 00 00 00 00    ................
e0: 00 00 00 00 00 00 00 00 00 00 00 00 00 00 00 00    ................
f0: 00 00 00 00 00 00 00 00 01 00 00 00 00 00 00 00    ........?.......
