     0  1  2  3  4  5  6  7  8  9  a  b  c  d  e  f    0123456789abcdef
00: 00 00 00 00 00 00 00 00 00 00 00 00 00 00 00 00    ................
10: 00 00 00 00 00 00 00 00 00 00 00 00 00 00 00 00    ................
20: 00 00 be c5 c2 1c 22 10 96 16 ff ff 7a 15 ff ff    ..????"???..z?..
30: 70 00 9e 00 00 00 00 00 00 00 00 00 00 00 01 69    p.?...........?i
40: 05 03 00 00 00 ff 00 ff b6 ca b6 ca b6 ca 0a 3c    ??......???????<
50: 0a 3c 0a 3c ff ff 78 69 78 69 ff ff 02 e2 22 90    ?<?<..xixi..??"?
60: a0 90 00 00 50 50 50 19 19 19 32 32 32 55 50 00    ??..PPP???222UP.
70: 1c 22 10 2c 2a 07 00 00 00 00 00 40 27 33 6b 54    ?"?,*?.....@'3kT
80: 00 00 00 00 00 00 00 00 00 00 00 00 00 00 00 00    ................
90: 00 00 00 00 00 00 00 00 00 00 00 00 00 00 00 00    ................
a0: 00 00 00 00 00 00 00 00 00 00 00 00 00 00 00 00    ................
b0: 00 00 00 00 00 00 00 00 00 00 00 00 00 00 00 00    ................
c0: 00 00 00 00 00 00 00 00 00 00 00 00 00 00 00 00    ................
d0: 00 00 00 00 00 00 00 00 00 00 00 00 00 00 00 00    ................
e0: 00 00 00 00 00 00 00 00 00 00 00 00 00 00 00 00    ................
f0: 00 00 00 00 00 00 00 00 00 00 00 00 00 00 00 00    ................
