# sensors lm96163-i2c-15-4c
# lm96163-i2c-15-4c
# Adapter: i2c-diolan-u2c:004
# fan1:           0 RPM  (min =    0 RPM)
# temp1:        +23.0°C  (high = +70.0°C)
# temp2:        +23.0°C  (low  =  +0.0°C, high = +85.0°C)
#                        (crit = +110.0°C, hyst = +100.0°C)
#
# i2cdump -y -f 15 0x4c b

     0  1  2  3  4  5  6  7  8  9  a  b  c  d  e  f    0123456789abcdef
00: 17 17 80 86 08 46 00 55 00 86 08 46 00 55 00 00    ?????F.U.??F.U..
10: 20 00 00 00 00 00 a4 00 00 6e 00 00 00 00 00 00     .....?..n......
20: 00 0a 00 00 00 00 00 00 00 00 00 00 00 00 00 00    .?..............
30: 00 17 20 00 00 00 00 00 00 00 00 00 00 00 00 00    .? .............
40: 00 00 00 00 00 00 ff ff fc ff 20 3f 01 08 00 04    ........?. ???.?
50: 7f 3f 7f 3f 7f 3f 7f 3f 7f 3f 7f 3f 7f 3f 7f 3f    ????????????????
60: 7f 3f 7f 3f 7f 3f 7f 3f 00 00 00 00 00 00 00 00    ????????........
70: 00 00 00 00 00 00 00 00 00 00 00 00 00 00 00 00    ................
80: 00 00 00 00 00 00 00 00 00 00 00 00 00 00 00 00    ................
90: 00 00 00 00 00 00 00 00 00 00 00 00 00 00 00 00    ................
a0: 00 00 00 00 00 00 00 00 00 00 00 00 00 00 00 00    ................
b0: 00 00 00 00 00 00 00 00 00 00 00 00 00 00 00 00    ................
c0: 00 00 00 00 00 00 00 00 00 00 00 00 00 00 00 00    ................
d0: 00 00 00 00 00 00 00 00 00 00 00 00 00 00 00 00    ................
e0: 00 00 00 00 00 00 00 00 00 00 00 00 00 00 00 00    ................
f0: 00 00 00 00 00 00 00 00 00 00 00 00 00 00 01 49    ..............?I
