# i2cdump -y 5 0x51 b

     0  1  2  3  4  5  6  7  8  9  a  b  c  d  e  f    0123456789abcdef
00: 7d 40 65 40 50 00 3b c0 28 80 15 00 97 00 8e 80    }@e@P.;?(??.?.??
10: 6e 00 50 c0 36 00 1b c0 51 79 40 00 00 00 00 00    n.P?6.??Qy@.....
20: 00 0e 00 00 00 00 00 00 00 00 00 00 00 00 00 00    .?..............
30: ff ff ff 00 00 00 00 00 00 00 00 00 00 00 00 00    ................
40: 00 00 00 00 00 00 00 09 1a ff 18 1a ff 18 1a ff    .......??.??.??.
50: 18 1a ff 18 1a ff 18 1a ff 18 1a ff 18 1a ff 18    ??.??.??.??.??.?
60: 1a ff 18 1a ff 18 1a ff 18 1a ff 18 00 00 00 00    ?.??.??.??.?....
70: 00 00 00 01 1e 00 00 cc cc cc cc cc cc cc 12 34    ...??..????????4
80: 56 78 9a bc 12 34 56 78 9a bc 00 00 02 01 00 00    Vx???4Vx??..??..
90: XX XX XX XX XX XX XX XX XX XX XX XX XX XX XX XX    XXXXXXXXXXXXXXXX
a0: XX XX XX XX XX 00 10 00 00 00 00 00 00 XX XX XX    XXXXX.?......XXX
b0: XX XX XX XX XX XX XX XX XX XX XX XX XX XX XX XX    XXXXXXXXXXXXXXXX
c0: XX XX XX XX XX XX XX XX XX XX XX XX XX XX XX XX    XXXXXXXXXXXXXXXX
d0: XX XX XX XX XX XX XX XX XX XX XX XX XX XX XX XX    XXXXXXXXXXXXXXXX
e0: XX XX XX XX XX XX XX XX XX XX XX XX XX XX XX XX    XXXXXXXXXXXXXXXX
f0: XX XX XX XX XX XX XX XX XX XX XX XX XX XX XX XX    XXXXXXXXXXXXXXXX
