     0,8  1,9  2,a  3,b  4,c  5,d  6,e  7,f
00: 7017 1770 6017 1760 a017 17a0 3017 ff30 
08: ffff ffff ffff ffff ffff ffff ffff 17ff 
10: b017 ffb0 10ff 1810 0018 7700 0077 0000 
18: 0000 0000 0000 0000 ff00 ffff ffff 7fff 
20: 007f 7f00 007f 7f00 007f 7f00 007f ff00 
28: ffff ffff ffff ffff ffff ffff ffff c9ff 
30: 00c9 0000 0000 0000 0f00 000f ff00 ffff 
38: ffff ffff ffff ffff ffff ffff ffff 00ff 
40: 0000 0000 0000 0000 0000 0000 0000 ff00 
48: ffff ffff ffff ffff ffff ffff ffff 4dff 
50: 014d ff01 ffff ffff ffff ffff ffff ffff 
58: ffff ffff ffff ffff ffff ffff ffff ffff 
60: ffff ffff ffff ffff ffff ffff ffff ffff 
68: ffff ffff ffff ffff ffff ffff ffff ffff 
70: ffff ffff ffff ffff ffff ffff ffff ffff 
78: ffff ffff ffff ffff ffff ffff ffff ffff 
80: ffff ffff ffff ffff ffff ffff ffff ffff 
88: ffff ffff ffff ffff ffff ffff ffff ffff 
90: ffff ffff ffff ffff ffff ffff ffff ffff 
98: ffff ffff ffff ffff ffff ffff ffff ffff 
a0: ffff ffff ffff ffff ffff ffff ffff ffff 
a8: ffff ffff ffff ffff ffff ffff ffff ffff 
b0: ffff ffff ffff ffff ffff ffff ffff ffff 
b8: ffff ffff ffff ffff ffff ffff ffff ffff 
c0: ffff ffff ffff ffff ffff ffff ffff ffff 
c8: ffff ffff ffff ffff ffff ffff ffff ffff 
d0: ffff ffff ffff ffff ffff ffff ffff ffff 
d8: ffff ffff ffff ffff ffff ffff ffff ffff 
e0: ffff ffff ffff ffff ffff ffff ffff ffff 
e8: ffff ffff ffff ffff ffff ffff ffff ffff 
f0: ffff ffff ffff ffff ffff ffff ffff ffff 
f8: ffff ffff ffff ffff ffff ffff ffff 17ff 
