WARNING! This program can confuse your I2C bus, cause data loss and worse!
I will probe file /dev/i2c-0, address 0x18, mode byte
Continue? [Y/n] 
     0  1  2  3  4  5  6  7  8  9  a  b  c  d  e  f    0123456789abcdef
00: 2c 2b 00 38 05 7f c9 7f c9 c9 c9 c9 c9 c9 c9 c9    ,+.8????????????
10: c0 00 00 00 00 00 00 00 00 69 69 69 69 69 69 69    ?........iiiiiii
20: 5a 06 06 06 06 06 06 06 06 06 06 06 06 06 06 06    Z???????????????
30: 06 06 06 06 06 06 06 06 06 06 06 06 06 06 06 06    ????????????????
40: 06 06 06 06 06 06 06 06 06 06 06 06 06 06 06 06    ????????????????
50: 06 06 06 06 06 06 06 06 06 06 06 06 06 06 06 06    ????????????????
60: 06 06 06 06 06 06 06 06 06 06 06 06 06 06 06 06    ????????????????
70: 06 06 06 06 06 06 06 06 06 06 06 06 06 06 06 06    ????????????????
80: 06 06 06 06 06 06 06 06 06 06 06 06 06 06 06 06    ????????????????
90: 06 06 06 06 06 06 06 06 06 06 06 06 06 06 06 06    ????????????????
a0: 06 06 06 06 06 06 06 06 06 06 06 06 06 06 06 06    ????????????????
b0: 06 06 06 06 06 06 06 06 06 06 06 06 06 06 06 06    ????????????????
c0: 06 06 06 06 06 06 06 06 06 06 06 06 06 06 06 06    ????????????????
d0: 06 06 06 06 06 06 06 06 06 06 06 06 06 06 06 06    ????????????????
e0: 06 06 06 06 06 06 06 06 06 06 06 06 06 06 06 06    ????????????????
f0: 06 06 06 06 06 06 06 06 06 06 06 06 06 06 4d 01    ??????????????M?

