No size specified (using byte-data access)
     0  1  2  3  4  5  6  7  8  9  a  b  c  d  e  f    0123456789abcdef
00: 00 39 3a 3b 39 3b 3b 18 ff a0 4d 00 00 00 00 00    .9:;9;;?.?M.....
10: 00 7f 7f 64 64 64 64 5a 64 00 00 00 00 00 00 00    .??ddddZd.......
20: 50 6e 6e 6e 7f 5a 5a 6e 00 00 00 00 00 00 00 00    Pnnn?ZZn........
30: 00 00 00 00 00 00 00 00 00 00 00 00 00 00 00 00    ................
40: 00 00 00 00 00 00 40 00 ff 00 00 00 00 00 00 00    ......@.........
50: 00 a0 60 20 e0 60 40 e0 e0 00 00 00 00 00 00 00    .?` ?`@??.......
60: 00 00 00 00 00 00 00 00 00 00 00 00 00 00 00 00    ................
70: 00 00 00 00 00 00 00 00 00 00 00 00 00 00 00 00    ................
80: 00 00 00 00 00 00 00 00 00 00 00 00 00 00 00 00    ................
90: 00 00 00 00 00 00 00 00 00 00 00 00 00 00 00 00    ................
a0: 00 00 00 00 00 00 00 00 00 00 00 00 00 00 00 00    ................
b0: 00 00 00 00 00 00 00 00 00 00 00 00 00 00 00 00    ................
c0: 00 00 00 00 00 00 00 00 00 00 00 00 00 00 00 00    ................
d0: 00 00 00 00 00 00 00 00 00 00 00 00 00 00 00 00    ................
e0: 00 00 00 00 00 00 00 00 00 00 00 00 00 00 00 00    ................
f0: 00 00 00 00 00 00 00 00 00 00 00 00 00 00 00 00    ................
