     0  1  2  3  4  5  6  7  8  9  a  b  c  d  e  f    0123456789abcdef
00: 26 26 80 00 07 5a 00 5f 00 00 00 00 00 00 00 00    &&?.?Z._........
10: a0 60 60 60 60 60 60 60 00 7d 7d 7d 7d 7d 7d 7d    ?```````.}}}}}}}
20: 5a 0a 86 86 86 86 86 86 86 86 86 86 86 86 86 86    Z???????????????
30: 86 86 86 86 86 86 86 86 86 86 86 86 86 86 86 86    ????????????????
40: 86 86 86 86 86 86 86 86 86 86 86 86 86 86 86 86    ????????????????
50: 86 86 86 86 86 86 86 86 86 86 86 86 86 86 86 86    ????????????????
60: 86 86 86 86 86 86 86 86 86 86 86 86 86 86 86 86    ????????????????
70: 86 86 86 86 86 86 86 86 86 86 86 86 86 86 86 86    ????????????????
80: 86 86 86 86 86 86 86 86 86 86 86 86 86 86 86 86    ????????????????
90: 86 86 86 86 86 86 86 86 86 86 86 86 86 86 86 86    ????????????????
a0: 86 86 86 86 86 86 86 86 86 86 86 86 86 86 86 86    ????????????????
b0: 86 86 86 86 86 86 86 86 86 86 86 86 86 86 86 86    ????????????????
c0: 86 86 86 86 86 86 86 86 86 86 86 86 86 86 86 86    ????????????????
d0: 86 86 86 86 86 86 86 86 86 86 86 86 86 86 86 86    ????????????????
e0: 86 86 86 86 86 86 86 86 86 86 86 86 86 86 86 86    ????????????????
f0: 86 86 86 86 86 86 86 86 86 86 86 86 86 86 4d 59    ??????????????MY
