     0  1  2  3  4  5  6  7  8  9  a  b  c  d  e  f    0123456789abcdef
00: 15 1d 00 00 05 69 00 6e 05 05 05 05 05 05 05 05    ??..?i.n????????
10: e0 c0 c0 c0 c0 c0 c0 c0 00 91 91 91 91 91 91 91    ????????.???????
20: 91 0a 86 86 86 86 86 86 86 86 86 86 86 86 86 86    ????????????????
30: 86 86 86 86 86 86 86 86 86 86 86 86 86 86 86 86    ????????????????
40: 86 86 86 86 86 86 86 86 86 86 86 86 86 86 86 86    ????????????????
50: 86 86 86 86 86 86 86 86 86 86 86 86 86 86 86 86    ????????????????
60: 86 86 86 86 86 86 86 86 86 86 86 86 86 86 86 86    ????????????????
70: 86 86 86 86 86 86 86 86 86 86 86 86 86 86 86 86    ????????????????
80: 86 86 86 86 86 86 86 86 86 86 86 86 86 86 86 86    ????????????????
90: 86 86 86 86 86 86 86 86 86 86 86 86 86 86 86 86    ????????????????
a0: 86 86 86 86 86 86 86 86 86 86 86 86 86 86 86 86    ????????????????
b0: 86 86 86 86 86 86 86 86 86 86 86 86 86 86 86 86    ????????????????
c0: 86 86 86 86 86 86 86 86 86 86 86 86 86 86 86 86    ????????????????
d0: 86 86 86 86 86 86 86 86 86 86 86 86 86 86 86 86    ????????????????
e0: 86 86 86 86 86 86 86 86 86 86 86 86 86 86 86 86    ????????????????
f0: 86 86 86 86 86 86 86 86 86 86 86 86 86 86 4d 59    ??????????????MY
