     0  1  2  3  4  5  6  7  8  9  a  b  c  d  e  f    0123456789abcdef
00: 00 54 7f f2 45 20 63 00 00 ce db 00 83 94 d2 40    .T??E c..??.???@
10: ff ff ff f8 00 64 2f 02 04 12 30 02 00 10 00 30    ...?.d/???0?.?.0
20: 02 81 7d 03 03 03 03 03 00 04 ee 80 f4 32 40 00    ??}?????.????2@.
30: 64 00 55 00 55 00 50 00 55 00 64 64 5a 64 64 ff    d.U.U.P.U.ddZdd.
40: 00 e8 00 ee 00 bc 00 c8 8c ff ff ff f8 f8 f8 7f    .?.?.?.??...????
50: 3f 07 8f bf 3f 00 3f 00 00 00 00 00 00 00 00 00    ?????.?.........
60: ff ff 7f 00 21 00 00 00 44 00 ff ff ff 02 01 01    ..?.!...D....???
70: 7f 84 84 84 53 53 53 80 0a 00 80 00 00 ff ff ff    ????SSS??.?.....
80: 3b 3c 4b 5a 5f 00 4c a5 ff ff ff ff ff ff ff ff    ;<KZ_.L?........
90: 3b 3c 4b 5a 5f 00 4c a5 ff ff ff ff ff ff ff ff    ;<KZ_.L?........
a0: 36 37 43 4f 5f 00 b2 d8 ff ff ff ff ff ff ff ff    67CO_.??........
b0: 3f b9 00 00 00 00 00 00 00 00 ff ff ff ff 00 0b    ??.............?
c0: 00 00 10 10 00 00 00 39 33 33 ff 00 00 00 40 00    ..??...933....@.
d0: 00 aa 0a 0a 0a 0a 02 f2 81 1e 00 18 07 41 7f 70    .?????????.??A?p
e0: e4 00 00 00 00 00 00 00 00 00 00 00 00 00 10 f0    ?.............??
f0: 00 30 00 ff 00 05 ff ff 20 08 0f 01 ff 50 c3 21    .0...?.. ???.P?!
