# /app/i2cdump -f 1 0x04c  
No size specified (using byte-data access)
WARNING! This program can confuse your I2C bus, cause data loss and
worse!
I will probe file /dev/i2c-1, address 0x4c, mode byte
Continue? [Y/n] Y
     0  1  2  3  4  5  6  7  8  9  a  b  c  d  e  f    0123456789abcdef
00: 36 7f 16 80 05 46 00 46 00 00 00 00 00 00 00 00    6????F.F........
10: 2c 00 00 00 00 00 00 00 00 55 00 00 00 00 00 00    ,........U......
20: 55 0a 80 00 00 00 00 00 00 00 00 00 00 00 00 00    U??.............
30: 00 00 00 00 00 00 00 00 00 00 00 00 00 00 00 00    ................
40: 00 00 00 00 00 00 00 00 00 00 00 00 00 00 00 00    ................
50: 00 00 00 00 00 00 00 00 00 00 00 00 00 00 00 00    ................
60: 00 00 00 00 00 00 00 00 00 00 00 00 00 00 00 00    ................
70: 00 00 00 00 00 00 00 00 00 00 00 00 00 00 00 00    ................
80: 00 00 00 00 00 00 00 00 00 00 00 00 00 00 00 00    ................
90: 00 00 00 00 00 00 00 00 00 00 00 00 00 00 00 00    ................
a0: 00 00 00 00 00 00 00 00 00 00 00 00 00 00 00 00    ................
b0: 07 05 26 48 00 00 00 00 00 00 00 00 00 00 00 00    ??&H............
c0: 00 00 00 00 00 00 00 00 00 00 00 00 00 00 00 00    ................
d0: 00 00 00 00 00 00 00 00 00 00 00 00 00 00 00 00    ................
e0: 00 00 00 00 00 00 00 00 00 00 00 00 00 00 00 00    ................
f0: 00 00 00 00 00 00 00 00 00 00 00 00 00 00 a1 00    ..............?.

