# From: Lou G.
# Board: Intel SS4200
# i2cdump 0 0x2e

     0  1  2  3  4  5  6  7  8  9  a  b  c  d  e  f    0123456789abcdef
00: 00 00 00 00 00 00 00 00 00 00 00 00 00 00 00 00    ................
10: 00 00 00 00 00 00 00 00 00 00 00 00 02 48 00 0f    ............?H.?
20: c0 57 c0 c3 bf fd 15 1a ff ff 40 11 b4 10 ff ff    ?W??????..@???..
30: 6b 6b 6b 30 0b 00 0f 00 40 00 48 f7 0f 00 5c 69    kkk0?.?.@.H??.\i
40: 05 00 00 18 00 ff 00 ff 00 ff 00 ff 00 ff 81 44    ?..?..........?D
50: 81 7f 81 4b ff ff ff ff ff ff ff ff 02 c2 c2 7b    ???K........???{
60: 7b 7b e8 88 6b 6b 6b 33 32 64 40 41 73 22 20 00    {{??kkk32d@As" .
70: 6b 6b 6b 00 00 00 00 00 00 00 30 00 00 00 ec 1c    kkk.......0...??
80: 7e a4 0f 00 00 6c 4c 2e cc 00 33 33 24 24 19 19    ~??..lL.?.33$$??
90: 04 04 04 04 0c 0c 0c 5a f1 c0 b5 00 ff 00 ff 00    ???????Z???.....
a0: 00 00 0c 00 00 ff ff 07 0b fe ff fe ff ff ff ff    ..?....???.?....
b0: ff 00 00 00 00 00 28 28 0e 0e 0f 0f 00 00 00 00    ......((????....
c0: 00 00 00 00 00 00 00 00 00 00 00 00 00 00 00 00    ................
d0: 00 00 00 00 00 00 00 00 00 00 00 00 00 00 00 00    ................
e0: 00 00 00 00 00 00 00 00 00 00 00 00 00 00 00 00    ................
f0: 00 00 00 00 00 00 00 00 00 00 00 00 00 00 00 00    ................
