     0  1  2  3  4  5  6  7  8  9  a  b  c  d  e  f    0123456789abcdef
00: 00 00 00 00 00 00 00 00 00 00 00 00 00 00 00 00    ................
10: 00 00 00 00 00 00 00 00 00 00 00 00 02 00 00 00    ............?...
20: b0 61 c3 3a cd c5 24 1e 7c 18 ff ff ff ff ff ff    ?a?:??$?|?......
30: b2 ae 3f 30 00 00 00 10 00 00 00 00 00 00 5c 69    ???0...?......\i
40: 25 80 38 00 00 ff 00 ff 00 ff 00 ff 00 ff 81 7f    %?8...........??
50: 81 7f 81 7f 4c 1d 4c 1d 4c 1d 4c 1d 42 22 02 7a    ????L?L?L?L?B"?z
60: 7a 7a e8 88 b2 a5 3f e4 23 3c 00 3c 50 44 40 00    zz??????#<.<PD@.
70: b2 ae 3f 00 00 00 00 00 00 00 00 00 00 00 ec 1c    ???...........??
80: 7e a4 0e 80 00 40 e6 aa e4 00 33 33 24 24 19 19    ~???.@???.33$$??
90: 04 04 04 04 0c 0c 0c 5a f1 bf b5 00 ff 00 ff 00    ???????Z???.....
a0: 00 00 0c 00 00 ff ff 0b 0b 1d 00 00 00 0c 00 0c    ..?....???...?.?
b0: 00 00 00 00 00 00 08 08 0e 0e 0f 0f 00 00 00 00    ......??????....
c0: 00 00 00 00 00 00 00 00 00 00 00 00 00 00 00 00    ................
d0: 00 00 00 00 00 00 00 00 00 00 00 00 00 00 00 00    ................
e0: 00 00 00 00 00 00 00 00 00 00 00 00 00 00 00 00    ................
f0: 00 00 00 00 00 00 00 00 00 00 00 00 00 00 00 00    ................
