0,8 1,9 2,a 3,b 4,c 5,d 6,e 7,f
00: 001a 0100 004b 0050 XXXX 0154 0210 XXXX
08: 01f0 0195 013c 0110 XXXX XXXX XXXX XXXX
10: 8019 0100 004b 0050 XXXX 0154 0210 XXXX
18: 01f0 0195 013c 0110 XXXX XXXX XXXX XXXX
20: 8019 0100 004b 0050 XXXX 0154 0210 XXXX
28: 01f0 0195 013c 0110 XXXX XXXX XXXX XXXX
30: 8019 0100 004b 0050 XXXX 0154 0210 XXXX
38: 01f0 0195 013c 0110 XXXX XXXX XXXX XXXX
40: 8019 0100 004b 0050 XXXX 0154 0210 XXXX
48: 01f0 0195 013c 0110 XXXX XXXX XXXX XXXX
50: 8019 0100 004b 0050 XXXX 0154 0210 XXXX
58: 01f0 0195 013c 0110 XXXX XXXX XXXX XXXX
60: 8019 0100 004b 0050 XXXX 0154 0210 XXXX
68: 01f0 0195 013c 0110 XXXX XXXX XXXX XXXX
70: 8019 0100 004b 0050 XXXX 0154 0210 XXXX
78: 01f0 0195 013c 0110 XXXX XXXX XXXX XXXX
80: 8019 0100 004b 0050 XXXX 0154 0210 XXXX
88: 01f0 0195 013c 0110 XXXX XXXX XXXX XXXX
90: 8019 0100 004b 0050 XXXX 0154 0210 XXXX
98: 01f0 0195 013c 0110 XXXX XXXX XXXX XXXX
a0: 8019 0100 004b 0050 XXXX 0154 0210 XXXX
a8: 01f0 0195 013c 0110 XXXX XXXX XXXX XXXX
b0: 8019 0100 004b 0050 XXXX 0154 0210 XXXX
b8: 01f0 0195 013c 0110 XXXX XXXX XXXX XXXX
c0: 001a 0100 004b 0050 XXXX 0154 0210 XXXX
c8: 01f0 0195 013c 0110 XXXX XXXX XXXX XXXX
d0: 001a 0100 004b 0050 XXXX 0154 0210 XXXX
d8: 01f0 0195 013c 0110 XXXX XXXX XXXX XXXX
e0: 8019 0100 004b 0050 XXXX 0154 0210 XXXX
e8: 01f0 0195 013c 0110 XXXX XXXX XXXX XXXX
f0: 8019 0100 004b 0050 XXXX 0154 0210 XXXX
f8: 01f0 0195 013c 0110 XXXX XXXX XXXX XXXX
