Witam.

Oto rezultaty polecen:

$ i2cdetect -l
i2c-0	i2c       	I810/I815 I2C Adapter           	I2C adapter
i2c-1	i2c       	I810/I815 DDC Adapter           	I2C adapter
i2c-2	smbus     	SMBus I801 adapter at fc00      	SMBus adapter

$ i2cdump -y 2 0x2e
No size specified (using byte-data access)
     0  1  2  3  4  5  6  7  8  9  a  b  c  d  e  f    0123456789abcdef
00: XX XX XX XX XX XX XX XX XX XX XX XX XX XX XX XX    XXXXXXXXXXXXXXXX
10: XX XX XX XX 4e 00 XX XX 64 00 XX XX XX XX XX XX    XXXXN.XXd.XXXXXX
20: XX XX XX XX XX XX 27 XX XX XX XX XX XX XX XX XX    XXXXXX'XXXXXXXXX
30: XX XX XX XX XX XX XX 35 81 XX XX XX XX XX 49 d2    XXXXXXX5?XXXXXI?
40: 2b 10 XX 96 XX XX XX XX XX XX XX 00 02 XX XX XX    +?X?XXXXXXX.?XXX
50: XX XX XX XX XX XX XX XX XX XX XX XX XX XX XX XX    XXXXXXXXXXXXXXXX
60: XX XX XX XX XX XX XX XX XX XX XX XX XX XX XX XX    XXXXXXXXXXXXXXXX
70: XX XX XX XX XX XX XX XX XX XX XX XX XX XX XX XX    XXXXXXXXXXXXXXXX
80: XX XX XX XX XX XX XX XX XX XX XX XX XX XX XX XX    XXXXXXXXXXXXXXXX
90: XX XX XX XX XX XX XX XX XX XX XX XX XX XX XX XX    XXXXXXXXXXXXXXXX
a0: XX XX XX XX XX XX XX XX XX XX XX XX XX XX XX XX    XXXXXXXXXXXXXXXX
b0: XX XX XX XX XX XX XX XX XX XX XX XX XX XX XX XX    XXXXXXXXXXXXXXXX
c0: 01 XX XX XX XX XX XX XX XX XX XX XX XX XX XX XX    ?XXXXXXXXXXXXXXX
d0: XX XX XX XX XX XX XX XX XX XX XX XX XX XX XX XX    XXXXXXXXXXXXXXXX
e0: XX XX XX XX XX XX XX XX XX XX XX XX XX XX XX XX    XXXXXXXXXXXXXXXX
f0: XX XX XX XX XX XX XX XX XX XX XX XX XX XX XX XX    XXXXXXXXXXXXXXXX

