# From: Steven K.
# Texas Instruments TMP102 at 0x4a

     0,8  1,9  2,a  3,b  4,c  5,d  6,e  7,f
00: d90c b062 002d 004b c01a d006 0000 0000
08: d90c b062 002d 004b c01a d006 0000 0000
10: d90c b062 002d 004b c01a d006 0000 0000
18: d90c b062 002d 004b c01a d006 0000 0000
20: d90c b062 002d 004b c01a d006 0000 0000
28: d90c b062 002d 004b c01a d006 0000 0000
30: d90c b062 002d 004b c01a d006 0000 0000
38: d90c b062 002d 004b c01a d006 0000 0000
40: d90c b062 002d 004b c01a d006 0000 0000
48: d90c b062 002d 004b c01a d006 0000 0000
50: d90c b062 002d 004b c01a d006 0000 0000
58: d90c b062 002d 004b c01a d006 0000 0000
60: d90c b062 002d 004b c01a d006 0000 0000
68: d90c b062 002d 004b c01a d006 0000 0000
70: d90c b062 002d 004b c01a d006 0000 0000
78: d90c b062 002d 004b c01a d006 0000 0000
80: d90c b062 002d 004b c01a d006 0000 0000
88: d90c b062 002d 004b c01a d006 0000 0000
90: d90c b062 002d 004b c01a d006 0000 0000
98: d90c b062 002d 004b c01a d006 0000 0000
a0: d90c b062 002d 004b c01a d006 0000 0000
a8: d90c b062 002d 004b c01a d006 0000 0000
b0: d90c b062 002d 004b c01a d006 0000 0000
b8: d90c b062 002d 004b c01a d006 0000 0000
c0: d90c b062 002d 004b c01a d006 0000 0000
c8: d90c b062 002d 004b c01a d006 0000 0000
d0: d90c b062 002d 004b c01a d006 0000 0000
d8: d90c b062 002d 004b c01a d006 0000 0000
e0: d10c b062 002d 004b c01a d006 0000 0000
e8: d10c b062 002d 004b c01a d006 0000 0000
f0: d10c b062 002d 004b c01a d006 0000 0000
f8: d10c b062 002d 004b c01a d006 0000 0000
