     0  1  2  3  4  5  6  7  8  9  a  b  c  d  e  f    0123456789abcdef
00: 19 16 80 00 07 55 00 55 00 00 07 55 00 55 00 00    ???.?U.U..?U.U..
10: d0 00 00 00 00 20 00 00 00 55 1c XX XX XX XX 00    ?.... ...U?XXXX.
20: 55 0a 70 XX XX 0f XX XX XX XX XX XX XX XX XX XX    U?pXX?XXXXXXXXXX
30: XX XX XX XX XX XX XX XX XX XX XX XX XX XX XX XX    XXXXXXXXXXXXXXXX
40: XX XX XX XX XX XX XX XX XX XX XX XX XX XX XX XX    XXXXXXXXXXXXXXXX
50: XX XX XX XX XX XX XX XX XX XX XX XX XX XX XX XX    XXXXXXXXXXXXXXXX
60: XX XX XX XX XX XX XX XX XX XX XX XX XX XX XX XX    XXXXXXXXXXXXXXXX
70: XX XX XX XX XX XX XX XX XX XX XX XX XX XX XX XX    XXXXXXXXXXXXXXXX
80: XX XX XX XX XX XX XX XX XX XX XX XX XX XX XX XX    XXXXXXXXXXXXXXXX
90: XX XX XX XX XX XX XX XX XX XX XX XX XX XX XX XX    XXXXXXXXXXXXXXXX
a0: XX XX XX XX XX XX XX XX XX XX XX XX XX XX XX XX    XXXXXXXXXXXXXXXX
b0: XX XX XX XX XX XX XX XX XX XX XX XX XX XX XX XX    XXXXXXXXXXXXXXXX
c0: XX XX XX XX XX XX XX XX XX XX XX XX XX XX XX XX    XXXXXXXXXXXXXXXX
d0: XX XX XX XX XX XX XX XX XX XX XX XX XX XX XX XX    XXXXXXXXXXXXXXXX
e0: XX XX XX XX XX XX XX XX XX XX XX XX XX XX XX XX    XXXXXXXXXXXXXXXX
f0: XX XX XX XX XX XX XX XX XX XX XX XX 00 31 55 31    XXXXXXXXXXXX.1U1
