      0  1  2  3  4  5  6  7  8  9  a  b  c  d  e  f    0123456789abcdef
00: 18 00 96 00 08 55 00 55 00 00 08 55 00 55 00 ff    ?.?.?U.U..?U.U..
10: 00 00 00 00 00 80 00 00 00 55 1c 1c 1c 1c 1c 1c    .....?...U??????
20: 55 0a 81 81 00 00 00 00 00 00 00 00 00 00 00 00    U???............
30: 18 80 19 00 ff f0 00 00 00 00 00 00 00 00 00 00    ???..?..........
40: 00 00 00 00 00 00 00 00 00 00 00 00 00 00 00 00    ................
50: 00 00 00 00 00 00 00 00 00 00 00 00 00 00 00 00    ................
60: 00 00 00 00 00 00 00 00 00 00 00 00 00 00 00 00    ................
70: 00 00 00 00 00 00 00 00 00 00 00 00 00 00 00 00    ................
80: 00 00 00 00 00 00 00 00 00 00 00 00 00 00 00 00    ................
90: 00 00 00 00 00 00 00 00 00 00 00 00 00 00 00 00    ................
a0: 00 00 00 00 00 00 00 00 00 00 00 00 00 00 00 00    ................
b0: 00 00 00 00 00 00 00 00 00 00 00 00 00 00 00 00    ................
c0: 00 00 00 00 00 00 00 00 00 00 00 00 00 00 00 00    ................
d0: 00 00 00 00 00 00 00 00 00 00 00 00 00 00 00 00    ................
e0: 00 00 00 00 00 00 00 00 00 00 00 00 00 00 00 00    ................
f0: 00 00 00 00 00 00 00 00 00 00 00 00 ff ff 55 11    ..............U?
