     0,8  1,9  2,a  3,b  4,c  5,d  6,e  7,f
00: c00a c00a b00a 0080 0080 0000 0000 0000 
08: 0000 0000 0000 0000 0000 0000 0000 0000 
10: 0000 0000 0000 0000 0000 0000 0000 0000 
18: 0000 0000 0000 0000 0000 0000 0000 0000 
20: 0000 0000 0000 000c 0000 0000 0000 0000 
28: 0000 0000 0000 0000 0000 0000 0000 0000 
30: 940f 0000 0000 0000 0000 0000 0000 0000 
38: 0005 803e c07f 0000 0000 0000 0000 0000 
40: 0000 0000 803e c07f 0000 0000 0000 0000 
48: 0000 0000 803e c07f 0000 0000 0000 0000 
50: 0000 0000 803e c07f 0000 0000 0000 0000 
58: 0000 0000 803e c07f 0000 0000 0000 0000 
60: 0000 0000 803e c07f 0000 0000 0000 0000 
68: 0000 0000 803e c07f 0000 0000 0000 0000 
70: 0000 0000 803e c07f 0000 0000 0000 0000 
78: 0000 0000 803e c07f 0000 0000 0000 0000 
80: c00a c00a b00a 0080 0080 0000 0000 0000 
88: 0000 0000 0000 0000 0000 0000 0000 0000 
90: XXXX 0000 0000 0000 0000 0000 0020 0000 
98: 0000 0000 0000 0000 0000 0000 0000 0000 
a0: 0000 0000 0000 0000 0000 0000 0000 0000 
a8: 0000 0000 0000 0000 0000 0000 0000 0000 
b0: 0000 0000 0000 0000 0000 0000 0000 0000 
b8: 0000 0000 0000 0000 0000 0000 0000 0000 
c0: 0000 0000 0000 0000 0000 0000 0000 0000 
c8: 0000 0000 0000 0000 0000 0000 0000 0000 
d0: 0000 0000 0000 0000 0000 0000 0000 0000 
d8: 0000 0000 0000 0000 0000 0000 0000 0000 
e0: 0000 0000 0000 0000 0000 0000 0000 0000 
e8: 0000 0000 0000 0000 0000 0000 0000 0000 
f0: 0000 0000 0000 0000 0000 0000 0000 0000 
f8: 0000 0000 0000 0000 0000 0000 4954 6814 
