# Board: Chaintech 7AIA5

     0  1  2  3  4  5  6  7  8  9  a  b  c  d  e  f    0123456789abcdef
00: 01 02 06 00 00 00 08 50 ad 2d 00 d5 00 00 00 00    ???...?P?-.?....
10: 00 00 00 d1 d3 bf e0 85 00 00 00 00 00 ff ff 85    ...?????.......?
20: cc 9b 91 1a d2 c8 c2 7f 7f 94 00 ff 00 d6 c1 d4    ??????????...???
30: bf cd ba cb b8 ff ff ff ff ff 00 ff ff ff 00 a2    ?????..........?
40: 01 00 00 00 00 00 08 50 ad 2d 00 d5 00 00 00 00    ?.....?P?-.?....
50: 00 00 00 32 d3 bf 5f 81 00 00 00 00 00 ff ff 85    ...2??_?.......?
60: cc 9b 91 1a d2 c8 c2 7f 7f 94 00 ff 00 d6 c1 d4    ??????????...???
70: bf cd ba cb b8 ff ff ff ff ff 00 ff ff ff 00 a2    ?????..........?
80: 01 00 00 00 00 00 08 50 ad 2d 00 d5 00 00 00 00    ?.....?P?-.?....
90: 00 00 00 85 01 bf d4 80 00 00 00 00 00 ff ff 85    ...?????.......?
a0: cc 9b 91 1a d2 c8 c2 7f 7f 94 00 ff 00 d6 c1 d4    ??????????...???
b0: bf cd ba cb b8 ff ff ff ff ff 00 ff ff ff 00 a2    ?????..........?
c0: 01 00 00 00 00 00 08 50 ad 2d 00 15 00 00 00 00    ?.....?P?-.?....
d0: 00 00 00 33 49 bf ab 81 00 00 00 00 00 ff ff 85    ...3I???.......?
e0: cc 9b 91 1a d2 c8 c2 7f 7f 94 00 ff 00 d6 c1 d4    ??????????...???
f0: bf cd ba cb b8 ff ff ff ff ff 00 ff ff ff 00 a2    ?????..........?
