# Board: MSI K7T Turbo

     0  1  2  3  4  5  6  7  8  9  a  b  c  d  e  f    0123456789abcdef
00: 01 13 16 00 00 00 00 50 ad 35 00 00 00 00 00 00    ???....P?5......
10: 00 00 00 7f 60 ff 3c 8b 00 00 00 00 00 ce c7 81    ...?`.<?.....???
20: d8 96 91 14 ce c2 c6 7f 7f 9e 00 d2 a8 e7 bd e4    ??????????.?????
30: ba de b5 dc b4 ff ff ff ff ae a4 e1 e1 c7 c0 a2    ?????....???????
40: 01 13 16 00 00 00 00 50 ad 35 00 00 00 00 00 00    ???....P?5......
50: 00 00 00 27 1d ff b7 81 00 00 00 00 00 ce c7 81    ...'?.??.....???
60: d8 96 91 14 ce c2 c6 7f 7f 9e 00 d2 a8 e7 bd e4    ??????????.?????
70: ba de b5 dc b4 ff ff ff ff ae a4 e1 e1 c7 c0 a2    ?????....???????
80: 01 00 00 00 00 00 00 50 ad 35 00 00 00 00 00 00    ?......P?5......
90: 00 00 00 d8 31 ff 35 81 00 00 00 00 00 ce c7 81    ...?1.5?.....???
a0: d8 96 91 14 ce c2 c6 7f 7f 9e 00 d2 a8 e7 bd e4    ??????????.?????
b0: ba de b5 dc b4 ff ff ff ff ae a4 e1 e1 c7 c0 a2    ?????....???????
c0: 01 00 00 00 00 00 00 50 ad 35 00 00 00 00 00 00    ?......P?5......
d0: 00 00 00 27 37 ff bc 81 00 00 00 00 00 ce c7 81    ...'7.??.....???
e0: d8 96 91 14 ce c2 c6 7f 7f 9e 00 d2 a8 e7 bd e4    ??????????.?????
f0: ba de b5 dc b4 ff ff ff ff ae a4 e1 e1 c7 c0 a2    ?????....???????
