     0  1  2  3  4  5  6  7  8  9  a  b  c  d  e  f    0123456789abcdef
00: 04 33 04 33 11 18 ff 20 01 80 01 01 3c 3c 01 01    ?3?3??. ????<<??
10: 04 47 10 18 04 01 01 3c 03 07 00 00 24 ff ff d0    ?G?????<??..$..?
20: 6c dc d4 d4 d6 d3 bb 07 ff a4 ff bb 4b eb bb e1    l???????.?.?K???
30: bc e1 bc e5 bb 77 67 ce a8 3c 3a ff ff 01 01 ff    ?????wg??<:..??.
40: 01 3e 00 ff ff 00 3f f5 2d 04 80 c0 10 95 00 a3    ?>....??-?????.?
50: ff ff 00 ff ff ff 00 00 c1 4f ff ff 01 00 00 05    ........?O..?..?
60: ff ff 40 ff ff ff ff ff 01 ff 01 ff 01 ff ff ff    ..@.....?.?.?...
70: 01 01 04 01 00 4b 4b 4b ff ff ff 1f 00 01 ca 00    ????.KKK...?.??.
80: 04 33 04 33 11 18 ff 20 01 80 01 01 3c 3c 01 01    ?3?3??. ????<<??
90: 04 47 10 18 04 01 01 3c 03 07 00 00 23 ff ff ce    ?G?????<??..#..?
a0: 6f dc d4 d4 d6 d3 bb 08 ff a3 ff bb 4b eb bb e1    o???????.?.?K???
b0: bc e1 bc e5 bb 77 67 ce a8 3c 3a ff ff 01 01 ff    ?????wg??<:..??.
c0: 01 3e 00 ff ff 00 3f f5 2d 04 80 c0 10 95 00 a3    ?>....??-?????.?
d0: ff ff 00 ff ff ff 00 00 c1 4f ff ff 01 00 00 05    ........?O..?..?
e0: ff ff 40 ff ff ff ff ff 01 ff 01 ff 01 ff ff ff    ..@.....?.?.?...
f0: 01 01 04 01 00 4b 4b 4b ff ff ff 1f 80 01 ca 00    ????.KKK...????.

