     0  1  2  3  4  5  6  7  8  9  a  b  c  d  e  f    0123456789abcdef
00: 04 ff 04 40 31 00 1e 50 01 02 01 02 3c 3c 0a 0a    ?.?@1.?P????<<??
10: 04 01 50 00 00 01 01 3c 43 07 00 00 ff ff ff d8    ??P..??<C?.....?
20: a0 83 d0 d0 a0 c2 e6 5a e1 21 99 cb 88 cb 74 d9    ???????Z?!????t?
30: 90 ff db ff fe 00 00 00 01 00 7f fe 54 0f b9 68    ?.?.?...?.??T??h
40: 01 10 10 ff ff ff 07 15 2d 00 40 c4 18 15 01 a3    ???...??-.@?????
50: 24 80 02 00 00 7f 05 e0 ff ff ff ff ff ff ff ff    $??..???........
60: 04 40 33 1e 02 02 3c ff 1f ff 1f ff ff ff ff ff    ?@3???<.?.?.....
70: ff ff ff ff ff ff ff ff ff ff ff ff ff ff ff ff    ................
80: 04 ff 04 40 31 00 1e 50 01 02 01 02 3c 3c 0a 0a    ?.?@1.?P????<<??
90: 04 01 50 00 00 01 01 3c 43 07 00 00 ff ff ff c6    ??P..??<C?.....?
a0: a0 83 d0 d0 a0 c2 e5 5a e0 20 99 cb 88 cb 74 d9    ???????Z? ????t?
b0: 90 ff db ff fe 00 00 00 01 00 7f fe 54 0f b9 67    ?.?.?...?.??T??g
c0: 01 10 10 ff ff ff 07 15 2d 00 40 c4 18 15 01 a3    ???...??-.@?????
d0: 24 80 02 00 00 7f 05 e0 ff ff ff ff ff ff ff ff    $??..???........
e0: 04 40 33 1e 02 02 3c ff 1f ff 1f ff ff ff ff ff    ?@3???<.?.?.....
f0: ff ff ff ff ff ff ff ff ff ff ff ff ff ff ff ff    ................

