     0  1  2  3  4  5  6  7  8  9  a  b  c  d  e  f    0123456789abcdef
00: 00 00 00 00 00 03 04 03 14 64 64 5e 73 a3 7b 12    .....????dd^s?{?
10: 8d 8d 88 ff 60 72 00 00 c9 cb 00 34 0b 09 00 00    ???.`r..??.4??..
20: 2a 2b 00 0f ff 0f ff 0f ff 01 ab 01 b4 0f ff 03    *+.?.?.?.?????.?
30: 3f 03 44 0f ff 0f ff 0f ff 0f ff ff ff ff ff ff    ??D?.?.?.?......
40: 01 00 00 9c 3c 00 f7 ff ff 7f 3f 00 00 9c 3c 00    ?..?<.?..??..?<.
50: 00 00 00 00 00 00 00 00 28 01 00 00 7f 00 ff 03    ........(?..?..?
60: ff 00 ff 00 ff 00 ff ff 3f 00 ff 00 ff 00 ff 00    ........?.......
70: ff 00 ff 00 ff 00 ff 00 64 5f 55 50 64 5f 55 50    ........d_UPd_UP
80: 64 5f 55 50 64 5f 55 50 64 5f 55 50 64 5f 55 50    d_UPd_UPd_UPd_UP
90: 06 97 06 97 06 97 06 97 06 97 06 97 06 97 06 97    ????????????????
a0: 06 97 06 97 06 97 06 97 00 00 00 00 00 00 ff ff    ????????........
b0: 00 00 30 1e 1e 1e 1e 1e 1e 1e 1e 89 89 89 89 89    ..0?????????????
c0: 89 89 89 06 06 7f ff 00 00 ff ff ff ff ff ff ff    ??????..........
d0: f0 40 40 40 40 10 c0 ff f2 c0 f2 40 80 01 80 01    ?@@@@??.???@????
e0: bb c0 82 ff 80 06 11 ff ff ff aa 4a ff ff ff ff    ???.???...?J....
f0: 00 00 00 00 00 00 60 80 1b 00 ff 00 00 10 00 00    ......`??....?..

