     0  1  2  3  4  5  6  7  8  9  a  b  c  d  e  f    0123456789abcdef
00: 00 00 00 00 00 28 14 28 14 64 64 5e c8 a3 7b 12    .....(?(?dd^??{?
10: 99 c0 96 ff 20 72 d3 7b c9 cc cb 30 3e 8c 86 80    ???. r?{???0>???
20: 37 1c 1b 01 30 01 2c 0f ff 0f ff 0f ff 0f ff 0f    7???0?,?.?.?.?.?
30: ff 0f ff 0f ff 0f ff 00 00 00 00 ff ff ff ff ff    .?.?.?..........
40: 09 00 00 80 40 00 f7 ef f3 7f 3f 02 10 f0 0f 00    ?..?@.?????????.
50: 06 1e 01 00 00 00 00 00 28 01 00 00 1f 00 55 01    ???.....(?..?.U?
60: b9 73 b9 73 a5 87 ff ff 3f 00 2b 18 7c 65 e3 b9    ?s?s??..?.+?|e??
70: 8a 70 e5 bb e5 bb e5 bb 3c 37 55 50 3c 37 55 50    ?p??????<7UP<7UP
80: 3c 37 55 50 3c 37 55 50 50 4b 55 50 32 2d 55 50    <7UP<7UPPKUP2-UP
90: 07 68 07 68 07 68 07 68 07 68 07 68 07 68 07 68    ?h?h?h?h?h?h?h?h
a0: 07 68 07 68 ff ff ff ff f6 f6 f6 f6 00 00 ff ff    ?h?h....????....
b0: 00 00 3f 3f 30 30 30 30 30 30 30 89 89 89 89 89    ..??0000000?????
c0: 89 89 89 02 03 7f ff 00 00 ff ff ff ff ff ff ff    ??????..........
d0: 00 46 46 46 46 00 f0 ff 80 01 80 01 80 01 80 01    .FFFF.?.????????
e0: bb c0 82 fe 80 aa fb 12 12 12 ce 06 ff ff ff ff    ????????????....
f0: 00 00 00 00 00 00 60 80 1b 00 ff 00 00 10 00 00    ......`??....?..
