     0  1  2  3  4  5  6  7  8  9  a  b  c  d  e  f    0123456789abcdef
00: 00 00 00 00 00 00 00 00 00 80 00 01 00 00 00 ff    .........?.?....
10: 00 00 7f 28 f0 9c 03 00 00 00 00 00 00 00 00 00    ..?(???.........
20: 43 61 4a bd 3d 63 55 23 14 15 16 bf 00 bf 00 ed    CaJ?=cU#????.?.?
30: b0 00 04 00 00 10 00 1c 00 32 2d fe fe fe ff ff    ?.?..?.?.2-???..
40: 03 00 00 00 00 00 00 5f 2c 11 89 44 0f 15 80 5c    ?......_,??D???\
50: ff ff ff ff ff ff 00 80 71 60 ff c0 dd e1 05 ff    .......?q`.????.
60: ff ff ff ff ff ff ff ff ff ff ff ff ff ff ff ff    ................
70: ff ff ff ff ff ff ff ff ff ff ff ff ff ff ff ff    ................
80: 01 ff 01 ff 03 00 00 00 01 01 01 01 3c 3c 00 00    ?.?.?...????<<..
90: 00 00 00 01 ff 81 00 00 01 01 3c 00 00 00 01 01    ...?.?..??<...??
a0: ff ff ff 00 00 00 00 00 17 0c 47 78 00 ff ff ff    ........??Gx....
b0: bf d2 7b ff 00 00 00 00 00 00 ff ff 90 02 ff ff    ??{.........??..
c0: 31 80 00 46 00 4b 00 ff 1d 00 00 28 00 2d 00 ff    1?.F.K..?..(.-..
d0: ff ff ff ff ff ff ff ff ff ff ff ff ff ff ff ff    ................
e0: ff ff ff ff ff ff ff ff ff ff ff ff ff ff ff ff    ................
f0: ff ff 00 ff 00 01 00 ff ff 02 ff 00 00 36 00 2e    .....?...?...6..
