# i2cdump 0 0x2f b

     0  1  2  3  4  5  6  7  8  9  a  b  c  d  e  f    0123456789abcdef
00: 00 00 00 00 00 00 00 00 00 00 00 00 00 00 00 00    ................
10: 00 00 64 64 93 00 00 53 00 ff 00 00 05 00 00 b3    ..dd?..S....?..?
20: a6 a6 51 4e 4a 9e d4 2f ff 7b 7f c6 94 c6 94 d8    ??QNJ??/.{??????
30: c4 c3 b0 cf bb e2 cc da c5 7f 00 ed ed ed a4 a8    ??????????.?????
40: 01 00 00 00 00 ff ff 11 2f 13 73 c4 4d ff 80 5c    ?......?/?s?M.?\
50: ff ff ff ff ff ff ff ff 7a 60 ff 11 bb 00 05 7f    ........z`.??.??
60: ff ff ff ff ff ff ff ff ff ff ff ff ff ff ff ff    ................
70: ff ff ff ff ff ff ff ff ff ff ff ff ff ff ff ff    ................
80: 01 8f 01 8f 00 00 00 00 11 11 ff ff 3c 3c 0a 0a    ????....??..<<??
90: 00 00 00 01 8f ff 00 00 11 ff 3c e0 00 01 01 ff    ...??...?.<?.??.
a0: 01 01 01 8f 8f 8f 8f ff 48 20 0f e0 ff ff 00 00    ???????.H ??....
b0: d2 00 ff ff ff 00 ff 00 ff ff ff ed ed ed ff ff    ?..........???..
c0: 2a 00 00 44 00 4e 00 ff 31 00 00 44 00 4e 00 ff    *..D.N..1..D.N..
d0: ff ff ff ff ff ff ff ff ff ff ff ff ff ff ff ff    ................
e0: 8b 8b 8b 28 3c 50 28 3c 50 28 3c 50 ff ff ff ff    ???(<P(<P(<P....
f0: ff ff 00 ff 00 01 00 20 ff 02 ff 00 00 00 00 ff    .....?. .?......
