# From: Manuel L-S
# Address: 0x4c

     0  1  2  3  4  5  6  7  8  9  a  b  c  d  e  f    0123456789abcdef
00: 2d 37 80 01 08 46 d8 46 d8 ff ff ff ff ff ff ff    -7???F?F?.......
10: 00 00 00 00 00 00 00 04 00 6e 6e 46 d8 00 00 ff    .......?.nnF?...
20: 55 0a ff ff 7f e0 ff ff ff ff ff ff ff ff ff ff    U?..??..........
30: ff ff ff ff ff ff ff ff ff ff ff ff ff ff ff ff    ................
40: ff ff ff ff ff ff ff ff ff ff ff ff ff ff ff ff    ................
50: ff ff ff ff ff ff ff ff ff ff ff ff ff ff ff ff    ................
60: ff ff ff ff ff ff ff ff ff ff ff ff ff ff ff ff    ................
70: ff ff ff ff ff ff ff ff ff ff ff ff ff ff ff ff    ................
80: ff ff ff ff ff ff ff ff ff ff ff ff ff ff ff ff    ................
90: ff ff ff ff ff ff ff ff ff ff ff ff ff ff ff ff    ................
a0: ff ff ff ff ff ff ff ff ff ff ff ff ff ff ff ff    ................
b0: ff ff ff ff ff ff ff ff ff ff ff ff ff ff ff 00    ................
c0: ff ff ff ff ff ff ff ff ff ff ff ff ff ff ff ff    ................
d0: ff ff ff ff ff ff ff ff ff ff ff ff ff ff ff ff    ................
e0: 00 00 00 84 84 84 00 00 55 00 00 ff ff ff ff ff    ...???..U.......
f0: 08 00 00 00 84 00 00 36 80 fc 36 83 37 ff 5c 11    ?...?..6??6?7.\?
